Freq.	V(vout)/(V(vp)-V(vm))
1.00000000000000e-002	(4.00533200745638e+001dB,1.79999957198382e+002°)
1.02329299228075e-002	(4.00533200745668e+001dB,1.79999956201405e+002°)
1.04712854805090e-002	(4.00533200745635e+001dB,1.79999955181204e+002°)
1.07151930523761e-002	(4.00533200745666e+001dB,1.79999954137240e+002°)
1.09647819614318e-002	(4.00533200745651e+001dB,1.79999953068960e+002°)
1.12201845430196e-002	(4.00533200745646e+001dB,1.79999951975795e+002°)
1.14815362149688e-002	(4.00533200745630e+001dB,1.79999950857168e+002°)
1.17489755493953e-002	(4.00533200745666e+001dB,1.79999949712484e+002°)
1.20226443461741e-002	(4.00533200745641e+001dB,1.79999948541137e+002°)
1.23026877081238e-002	(4.00533200745626e+001dB,1.79999947342507e+002°)
1.25892541179417e-002	(4.00533200745656e+001dB,1.79999946115956e+002°)
1.28824955169313e-002	(4.00533200745623e+001dB,1.79999944860835e+002°)
1.31825673855641e-002	(4.00533200745652e+001dB,1.79999943576479e+002°)
1.34896288259165e-002	(4.00533200745637e+001dB,1.79999942262207e+002°)
1.38038426460288e-002	(4.00533200745617e+001dB,1.79999940917321e+002°)
1.41253754462275e-002	(4.00533200745628e+001dB,1.79999939541108e+002°)
1.44543977074593e-002	(4.00533200745630e+001dB,1.79999938132840e+002°)
1.47910838816821e-002	(4.00533200745624e+001dB,1.79999936691768e+002°)
1.51356124843621e-002	(4.00533200745608e+001dB,1.79999935217130e+002°)
1.54881661891248e-002	(4.00533200745619e+001dB,1.79999933708143e+002°)
1.58489319246111e-002	(4.00533200745635e+001dB,1.79999932164008e+002°)
1.62181009735893e-002	(4.00533200745600e+001dB,1.79999930583904e+002°)
1.65958690743756e-002	(4.00533200745611e+001dB,1.79999928966996e+002°)
1.69824365246174e-002	(4.00533200745608e+001dB,1.79999927312425e+002°)
1.73780082874937e-002	(4.00533200745605e+001dB,1.79999925619314e+002°)
1.77827941003892e-002	(4.00533200745606e+001dB,1.79999923886765e+002°)
1.81970085860998e-002	(4.00533200745597e+001dB,1.79999922113860e+002°)
1.86208713666287e-002	(4.00533200745599e+001dB,1.79999920299659e+002°)
1.90546071796325e-002	(4.00533200745590e+001dB,1.79999918443199e+002°)
1.94984459975804e-002	(4.00533200745573e+001dB,1.79999916543497e+002°)
1.99526231496888e-002	(4.00533200745587e+001dB,1.79999914599545e+002°)
2.04173794466953e-002	(4.00533200745579e+001dB,1.79999912610313e+002°)
2.08929613085404e-002	(4.00533200745574e+001dB,1.79999910574746e+002°)
2.13796208950223e-002	(4.00533200745587e+001dB,1.79999908491764e+002°)
2.18776162394955e-002	(4.00533200745568e+001dB,1.79999906360264e+002°)
2.23872113856834e-002	(4.00533200745540e+001dB,1.79999904179114e+002°)
2.29086765276777e-002	(4.00533200745571e+001dB,1.79999901947159e+002°)
2.34422881531992e-002	(4.00533200745548e+001dB,1.79999899663215e+002°)
2.39883291901949e-002	(4.00533200745528e+001dB,1.79999897326071e+002°)
2.45470891568503e-002	(4.00533200745540e+001dB,1.79999894934488e+002°)
2.51188643150958e-002	(4.00533200745529e+001dB,1.79999892487198e+002°)
2.57039578276886e-002	(4.00533200745527e+001dB,1.79999889982903e+002°)
2.63026799189538e-002	(4.00533200745519e+001dB,1.79999887420275e+002°)
2.69153480392691e-002	(4.00533200745494e+001dB,1.79999884797957e+002°)
2.75422870333816e-002	(4.00533200745485e+001dB,1.79999882114556e+002°)
2.81838293126445e-002	(4.00533200745495e+001dB,1.79999879368652e+002°)
2.88403150312660e-002	(4.00533200745482e+001dB,1.79999876558786e+002°)
2.95120922666638e-002	(4.00533200745441e+001dB,1.79999873683471e+002°)
3.01995172040201e-002	(4.00533200745464e+001dB,1.79999870741181e+002°)
3.09029543251359e-002	(4.00533200745454e+001dB,1.79999867730357e+002°)
3.16227766016838e-002	(4.00533200745447e+001dB,1.79999864649401e+002°)
3.23593656929628e-002	(4.00533200745438e+001dB,1.79999861496680e+002°)
3.31131121482591e-002	(4.00533200745421e+001dB,1.79999858270524e+002°)
3.38844156139202e-002	(4.00533200745377e+001dB,1.79999854969220e+002°)
3.46736850452531e-002	(4.00533200745378e+001dB,1.79999851591019e+002°)
3.54813389233575e-002	(4.00533200745366e+001dB,1.79999848134130e+002°)
3.63078054770101e-002	(4.00533200745371e+001dB,1.79999844596719e+002°)
3.71535229097172e-002	(4.00533200745360e+001dB,1.79999840976912e+002°)
3.80189396320561e-002	(4.00533200745327e+001dB,1.79999837272789e+002°)
3.89045144994280e-002	(4.00533200745329e+001dB,1.79999833482385e+002°)
3.98107170553497e-002	(4.00533200745326e+001dB,1.79999829603691e+002°)
4.07380277804112e-002	(4.00533200745291e+001dB,1.79999825634651e+002°)
4.16869383470335e-002	(4.00533200745273e+001dB,1.79999821573161e+002°)
4.26579518801592e-002	(4.00533200745236e+001dB,1.79999817417066e+002°)
4.36515832240165e-002	(4.00533200745221e+001dB,1.79999813164163e+002°)
4.46683592150962e-002	(4.00533200745232e+001dB,1.79999808812197e+002°)
4.57088189614874e-002	(4.00533200745178e+001dB,1.79999804358861e+002°)
4.67735141287197e-002	(4.00533200745168e+001dB,1.79999799801794e+002°)
4.78630092322637e-002	(4.00533200745145e+001dB,1.79999795138578e+002°)
4.89778819368445e-002	(4.00533200745138e+001dB,1.79999790366743e+002°)
5.01187233627271e-002	(4.00533200745076e+001dB,1.79999785483757e+002°)
5.12861383991364e-002	(4.00533200745071e+001dB,1.79999780487032e+002°)
5.24807460249771e-002	(4.00533200745042e+001dB,1.79999775373918e+002°)
5.37031796370252e-002	(4.00533200745012e+001dB,1.79999770141704e+002°)
5.49540873857623e-002	(4.00533200744989e+001dB,1.79999764787617e+002°)
5.62341325190348e-002	(4.00533200744957e+001dB,1.79999759308817e+002°)
5.75439937337156e-002	(4.00533200744926e+001dB,1.79999753702399e+002°)
5.88843655355588e-002	(4.00533200744886e+001dB,1.79999747965390e+002°)
6.02559586074356e-002	(4.00533200744831e+001dB,1.79999742094750e+002°)
6.16595001861481e-002	(4.00533200744791e+001dB,1.79999736087365e+002°)
6.30957344480192e-002	(4.00533200744773e+001dB,1.79999729940050e+002°)
6.45654229034654e-002	(4.00533200744729e+001dB,1.79999723649546e+002°)
6.60693448007594e-002	(4.00533200744665e+001dB,1.79999717212517e+002°)
6.76082975391980e-002	(4.00533200744613e+001dB,1.79999710625550e+002°)
6.91830970918935e-002	(4.00533200744567e+001dB,1.79999703885154e+002°)
7.07945784384136e-002	(4.00533200744516e+001dB,1.79999696987753e+002°)
7.24435960074988e-002	(4.00533200744461e+001dB,1.79999689929691e+002°)
7.41310241300916e-002	(4.00533200744417e+001dB,1.79999682707225e+002°)
7.58577575029182e-002	(4.00533200744330e+001dB,1.79999675316527e+002°)
7.76247116628690e-002	(4.00533200744281e+001dB,1.79999667753678e+002°)
7.94328234724279e-002	(4.00533200744216e+001dB,1.79999660014667e+002°)
8.12830516164097e-002	(4.00533200744132e+001dB,1.79999652095391e+002°)
8.31763771102669e-002	(4.00533200744075e+001dB,1.79999643991651e+002°)
8.51138038202374e-002	(4.00533200744004e+001dB,1.79999635699152e+002°)
8.70963589956078e-002	(4.00533200743920e+001dB,1.79999627213495e+002°)
8.91250938133743e-002	(4.00533200743807e+001dB,1.79999618530182e+002°)
9.12010839355907e-002	(4.00533200743751e+001dB,1.79999609644608e+002°)
9.33254300796988e-002	(4.00533200743661e+001dB,1.79999600552063e+002°)
9.54992586021433e-002	(4.00533200743565e+001dB,1.79999591247725e+002°)
9.77237220955808e-002	(4.00533200743480e+001dB,1.79999581726662e+002°)
9.99999999999997e-002	(4.00533200743358e+001dB,1.79999571983824e+002°)
1.02329299228075e-001	(4.00533200743266e+001dB,1.79999562014047e+002°)
1.04712854805090e-001	(4.00533200743134e+001dB,1.79999551812043e+002°)
1.07151930523760e-001	(4.00533200743015e+001dB,1.79999541372405e+002°)
1.09647819614318e-001	(4.00533200742894e+001dB,1.79999530689596e+002°)
1.12201845430196e-001	(4.00533200742777e+001dB,1.79999519757952e+002°)
1.14815362149688e-001	(4.00533200742640e+001dB,1.79999508571678e+002°)
1.17489755493953e-001	(4.00533200742479e+001dB,1.79999497124842e+002°)
1.20226443461741e-001	(4.00533200742309e+001dB,1.79999485411374e+002°)
1.23026877081238e-001	(4.00533200742179e+001dB,1.79999473425065e+002°)
1.25892541179416e-001	(4.00533200741992e+001dB,1.79999461159559e+002°)
1.28824955169313e-001	(4.00533200741837e+001dB,1.79999448608354e+002°)
1.31825673855640e-001	(4.00533200741674e+001dB,1.79999435764792e+002°)
1.34896288259165e-001	(4.00533200741471e+001dB,1.79999422622066e+002°)
1.38038426460288e-001	(4.00533200741255e+001dB,1.79999409173206e+002°)
1.41253754462275e-001	(4.00533200741079e+001dB,1.79999395411082e+002°)
1.44543977074592e-001	(4.00533200740857e+001dB,1.79999381328397e+002°)
1.47910838816820e-001	(4.00533200740610e+001dB,1.79999366917684e+002°)
1.51356124843620e-001	(4.00533200740377e+001dB,1.79999352171302e+002°)
1.54881661891248e-001	(4.00533200740141e+001dB,1.79999337081434e+002°)
1.58489319246111e-001	(4.00533200739861e+001dB,1.79999321640076e+002°)
1.62181009735892e-001	(4.00533200739615e+001dB,1.79999305839044e+002°)
1.65958690743755e-001	(4.00533200739309e+001dB,1.79999289669958e+002°)
1.69824365246174e-001	(4.00533200738986e+001dB,1.79999273124246e+002°)
1.73780082874937e-001	(4.00533200738679e+001dB,1.79999256193135e+002°)
1.77827941003892e-001	(4.00533200738363e+001dB,1.79999238867647e+002°)
1.81970085860998e-001	(4.00533200738030e+001dB,1.79999221138597e+002°)
1.86208713666286e-001	(4.00533200737652e+001dB,1.79999202996585e+002°)
1.90546071796324e-001	(4.00533200737292e+001dB,1.79999184431991e+002°)
1.94984459975804e-001	(4.00533200736888e+001dB,1.79999165434971e+002°)
1.99526231496887e-001	(4.00533200736456e+001dB,1.79999145995454e+002°)
2.04173794466952e-001	(4.00533200736038e+001dB,1.79999126103133e+002°)
2.08929613085403e-001	(4.00533200735590e+001dB,1.79999105747460e+002°)
2.13796208950222e-001	(4.00533200735104e+001dB,1.79999084917642e+002°)
2.18776162394954e-001	(4.00533200734602e+001dB,1.79999063602636e+002°)
2.23872113856833e-001	(4.00533200734094e+001dB,1.79999041791140e+002°)
2.29086765276776e-001	(4.00533200733521e+001dB,1.79999019471588e+002°)
2.34422881531991e-001	(4.00533200732985e+001dB,1.79998996632148e+002°)
2.39883291901948e-001	(4.00533200732364e+001dB,1.79998973260708e+002°)
2.45470891568502e-001	(4.00533200731741e+001dB,1.79998949344877e+002°)
2.51188643150957e-001	(4.00533200731084e+001dB,1.79998924871976e+002°)
2.57039578276885e-001	(4.00533200730414e+001dB,1.79998899829027e+002°)
2.63026799189537e-001	(4.00533200729658e+001dB,1.79998874202753e+002°)
2.69153480392690e-001	(4.00533200728905e+001dB,1.79998847979567e+002°)
2.75422870333815e-001	(4.00533200728129e+001dB,1.79998821145563e+002°)
2.81838293126444e-001	(4.00533200727310e+001dB,1.79998793686516e+002°)
2.88403150312659e-001	(4.00533200726445e+001dB,1.79998765587865e+002°)
2.95120922666637e-001	(4.00533200725534e+001dB,1.79998736834712e+002°)
3.01995172040200e-001	(4.00533200724575e+001dB,1.79998707411814e+002°)
3.09029543251358e-001	(4.00533200723609e+001dB,1.79998677303567e+002°)
3.16227766016837e-001	(4.00533200722550e+001dB,1.79998646494009e+002°)
3.23593656929627e-001	(4.00533200721478e+001dB,1.79998614966805e+002°)
3.31131121482590e-001	(4.00533200720315e+001dB,1.79998582705237e+002°)
3.38844156139201e-001	(4.00533200719129e+001dB,1.79998549692201e+002°)
3.46736850452530e-001	(4.00533200717877e+001dB,1.79998515910193e+002°)
3.54813389233574e-001	(4.00533200716567e+001dB,1.79998481341301e+002°)
3.63078054770100e-001	(4.00533200715191e+001dB,1.79998445967195e+002°)
3.71535229097171e-001	(4.00533200713763e+001dB,1.79998409769121e+002°)
3.80189396320559e-001	(4.00533200712248e+001dB,1.79998372727885e+002°)
3.89045144994279e-001	(4.00533200710683e+001dB,1.79998334823848e+002°)
3.98107170553495e-001	(4.00533200709006e+001dB,1.79998296036913e+002°)
4.07380277804111e-001	(4.00533200707297e+001dB,1.79998256346515e+002°)
4.16869383470333e-001	(4.00533200705507e+001dB,1.79998215731606e+002°)
4.26579518801591e-001	(4.00533200703599e+001dB,1.79998174170657e+002°)
4.36515832240164e-001	(4.00533200701612e+001dB,1.79998131641629e+002°)
4.46683592150961e-001	(4.00533200699539e+001dB,1.79998088121971e+002°)
4.57088189614873e-001	(4.00533200697347e+001dB,1.79998043588611e+002°)
4.67735141287196e-001	(4.00533200695088e+001dB,1.79997998017936e+002°)
4.78630092322636e-001	(4.00533200692672e+001dB,1.79997951385783e+002°)
4.89778819368444e-001	(4.00533200690216e+001dB,1.79997903667429e+002°)
5.01187233627270e-001	(4.00533200687571e+001dB,1.79997854837570e+002°)
5.12861383991362e-001	(4.00533200684851e+001dB,1.79997804870318e+002°)
5.24807460249770e-001	(4.00533200681989e+001dB,1.79997753739178e+002°)
5.37031796370250e-001	(4.00533200678991e+001dB,1.79997701417044e+002°)
5.49540873857622e-001	(4.00533200675839e+001dB,1.79997647876169e+002°)
5.62341325190346e-001	(4.00533200672553e+001dB,1.79997593088167e+002°)
5.75439937337154e-001	(4.00533200669116e+001dB,1.79997537023987e+002°)
5.88843655355586e-001	(4.00533200665515e+001dB,1.79997479653906e+002°)
6.02559586074355e-001	(4.00533200661714e+001dB,1.79997420947504e+002°)
6.16595001861479e-001	(4.00533200657771e+001dB,1.79997360873655e+002°)
6.30957344480190e-001	(4.00533200653618e+001dB,1.79997299400505e+002°)
6.45654229034652e-001	(4.00533200649258e+001dB,1.79997236495461e+002°)
6.60693448007592e-001	(4.00533200644737e+001dB,1.79997172125171e+002°)
6.76082975391978e-001	(4.00533200639970e+001dB,1.79997106255506e+002°)
6.91830970918933e-001	(4.00533200634998e+001dB,1.79997038851537e+002°)
7.07945784384134e-001	(4.00533200629776e+001dB,1.79996969877530e+002°)
7.24435960074986e-001	(4.00533200624315e+001dB,1.79996899296909e+002°)
7.41310241300913e-001	(4.00533200618619e+001dB,1.79996827072257e+002°)
7.58577575029179e-001	(4.00533200612606e+001dB,1.79996753165276e+002°)
7.76247116628687e-001	(4.00533200606343e+001dB,1.79996677536780e+002°)
7.94328234724277e-001	(4.00533200599790e+001dB,1.79996600146670e+002°)
8.12830516164095e-001	(4.00533200592896e+001dB,1.79996520953912e+002°)
8.31763771102666e-001	(4.00533200585705e+001dB,1.79996439916519e+002°)
8.51138038202372e-001	(4.00533200578184e+001dB,1.79996356991523e+002°)
8.70963589956076e-001	(4.00533200570284e+001dB,1.79996272134955e+002°)
8.91250938133740e-001	(4.00533200561990e+001dB,1.79996185301823e+002°)
9.12010839355904e-001	(4.00533200553346e+001dB,1.79996096446088e+002°)
9.33254300796986e-001	(4.00533200544255e+001dB,1.79996005520638e+002°)
9.54992586021430e-001	(4.00533200534775e+001dB,1.79995912477259e+002°)
9.77237220955805e-001	(4.00533200524828e+001dB,1.79995817266624e+002°)
9.99999999999994e-001	(4.00533200514442e+001dB,1.79995719838250e+002°)
1.02329299228075e+000	(4.00533200503544e+001dB,1.79995620140476e+002°)
1.04712854805089e+000	(4.00533200492132e+001dB,1.79995518120440e+002°)
1.07151930523760e+000	(4.00533200480178e+001dB,1.79995413724056e+002°)
1.09647819614318e+000	(4.00533200467652e+001dB,1.79995306895963e+002°)
1.12201845430196e+000	(4.00533200454558e+001dB,1.79995197579530e+002°)
1.14815362149688e+000	(4.00533200440834e+001dB,1.79995085716788e+002°)
1.17489755493952e+000	(4.00533200426458e+001dB,1.79994971248428e+002°)
1.20226443461741e+000	(4.00533200411427e+001dB,1.79994854113755e+002°)
1.23026877081237e+000	(4.00533200395670e+001dB,1.79994734250669e+002°)
1.25892541179416e+000	(4.00533200379188e+001dB,1.79994611595611e+002°)
1.28824955169313e+000	(4.00533200361902e+001dB,1.79994486083550e+002°)
1.31825673855640e+000	(4.00533200343838e+001dB,1.79994357647936e+002°)
1.34896288259165e+000	(4.00533200324876e+001dB,1.79994226220675e+002°)
1.38038426460288e+000	(4.00533200305041e+001dB,1.79994091732079e+002°)
1.41253754462275e+000	(4.00533200284283e+001dB,1.79993954110840e+002°)
1.44543977074592e+000	(4.00533200262543e+001dB,1.79993813283992e+002°)
1.47910838816820e+000	(4.00533200239764e+001dB,1.79993669176866e+002°)
1.51356124843620e+000	(4.00533200215921e+001dB,1.79993521713052e+002°)
1.54881661891247e+000	(4.00533200190937e+001dB,1.79993370814364e+002°)
1.58489319246110e+000	(4.00533200164830e+001dB,1.79993216400796e+002°)
1.62181009735892e+000	(4.00533200137422e+001dB,1.79993058390473e+002°)
1.65958690743755e+000	(4.00533200108752e+001dB,1.79992896699619e+002°)
1.69824365246173e+000	(4.00533200078763e+001dB,1.79992731242499e+002°)
1.73780082874936e+000	(4.00533200047292e+001dB,1.79992561931391e+002°)
1.77827941003891e+000	(4.00533200014430e+001dB,1.79992388676516e+002°)
1.81970085860997e+000	(4.00533199979961e+001dB,1.79992211386020e+002°)
1.86208713666286e+000	(4.00533199943856e+001dB,1.79992029965898e+002°)
1.90546071796323e+000	(4.00533199906063e+001dB,1.79991844319954e+002°)
1.94984459975803e+000	(4.00533199866503e+001dB,1.79991654349765e+002°)
1.99526231496887e+000	(4.00533199825082e+001dB,1.79991459954605e+002°)
2.04173794466952e+000	(4.00533199781673e+001dB,1.79991261031392e+002°)
2.08929613085403e+000	(4.00533199736247e+001dB,1.79991057474669e+002°)
2.13796208950222e+000	(4.00533199688701e+001dB,1.79990849176497e+002°)
2.18776162394954e+000	(4.00533199638877e+001dB,1.79990636026438e+002°)
2.23872113856832e+000	(4.00533199586697e+001dB,1.79990417911475e+002°)
2.29086765276776e+000	(4.00533199532099e+001dB,1.79990194715966e+002°)
2.34422881531990e+000	(4.00533199474899e+001dB,1.79989966321567e+002°)
2.39883291901947e+000	(4.00533199414990e+001dB,1.79989732607178e+002°)
2.45470891568501e+000	(4.00533199352281e+001dB,1.79989493448883e+002°)
2.51188643150956e+000	(4.00533199286622e+001dB,1.79989248719873e+002°)
2.57039578276884e+000	(4.00533199217855e+001dB,1.79988998290390e+002°)
2.63026799189536e+000	(4.00533199145845e+001dB,1.79988742027663e+002°)
2.69153480392690e+000	(4.00533199070448e+001dB,1.79988479795804e+002°)
2.75422870333815e+000	(4.00533198991516e+001dB,1.79988211455783e+002°)
2.81838293126443e+000	(4.00533198908825e+001dB,1.79987936865324e+002°)
2.88403150312658e+000	(4.00533198822261e+001dB,1.79987655878832e+002°)
2.95120922666636e+000	(4.00533198731609e+001dB,1.79987368347321e+002°)
3.01995172040199e+000	(4.00533198636694e+001dB,1.79987074118340e+002°)
3.09029543251357e+000	(4.00533198537287e+001dB,1.79986773035886e+002°)
3.16227766016835e+000	(4.00533198433238e+001dB,1.79986464940323e+002°)
3.23593656929626e+000	(4.00533198324221e+001dB,1.79986149668295e+002°)
3.31131121482589e+000	(4.00533198210134e+001dB,1.79985827052642e+002°)
3.38844156139200e+000	(4.00533198090633e+001dB,1.79985496922298e+002°)
3.46736850452529e+000	(4.00533197965500e+001dB,1.79985159102235e+002°)
3.54813389233573e+000	(4.00533197834464e+001dB,1.79984813413335e+002°)
3.63078054770098e+000	(4.00533197697263e+001dB,1.79984459672307e+002°)
3.71535229097170e+000	(4.00533197553600e+001dB,1.79984097691591e+002°)
3.80189396320558e+000	(4.00533197403168e+001dB,1.79983727279258e+002°)
3.89045144994278e+000	(4.00533197245632e+001dB,1.79983348238913e+002°)
3.98107170553494e+000	(4.00533197080693e+001dB,1.79982960369597e+002°)
4.07380277804109e+000	(4.00533196907947e+001dB,1.79982563465642e+002°)
4.16869383470332e+000	(4.00533196727104e+001dB,1.79982157316606e+002°)
4.26579518801589e+000	(4.00533196537717e+001dB,1.79981741707150e+002°)
4.36515832240162e+000	(4.00533196339375e+001dB,1.79981316416898e+002°)
4.46683592150959e+000	(4.00533196131723e+001dB,1.79980881220370e+002°)
4.57088189614871e+000	(4.00533195914270e+001dB,1.79980435886811e+002°)
4.67735141287194e+000	(4.00533195686570e+001dB,1.79979980180118e+002°)
4.78630092322634e+000	(4.00533195448151e+001dB,1.79979513858646e+002°)
4.89778819368442e+000	(4.00533195198484e+001dB,1.79979036675143e+002°)
5.01187233627268e+000	(4.00533194937049e+001dB,1.79978548376619e+002°)
5.12861383991361e+000	(4.00533194663300e+001dB,1.79978048704169e+002°)
5.24807460249768e+000	(4.00533194376636e+001dB,1.79977537392860e+002°)
5.37031796370248e+000	(4.00533194076505e+001dB,1.79977014171580e+002°)
5.49540873857620e+000	(4.00533193762160e+001dB,1.79976478762902e+002°)
5.62341325190344e+000	(4.00533193433042e+001dB,1.79975930882968e+002°)
5.75439937337152e+000	(4.00533193088404e+001dB,1.79975370241276e+002°)
5.88843655355584e+000	(4.00533192727550e+001dB,1.79974796540568e+002°)
6.02559586074353e+000	(4.00533192349670e+001dB,1.79974209476648e+002°)
6.16595001861477e+000	(4.00533191953956e+001dB,1.79973608738273e+002°)
6.30957344480188e+000	(4.00533191539620e+001dB,1.79972994006899e+002°)
