time,V(vout3),V(vp)-V(vm)
0.000000000000000e+000,2.500675e+000,0.000000e+000
1.307837599790555e-007,2.500675e+000,5.790165e-006
2.615675199581111e-007,2.500675e+000,1.158033e-005
3.923512799371666e-007,2.500675e+000,1.737050e-005
5.231350399162222e-007,2.500675e+000,2.316066e-005
6.539187998952777e-007,2.500675e+000,2.895083e-005
7.847025598743332e-007,2.500675e+000,3.474099e-005
9.154863198533885e-007,2.500675e+000,4.053116e-005
1.227294864293549e-006,2.500675e+000,5.435944e-005
1.515046385248624e-006,2.500675e+000,6.723404e-005
1.874295665269810e-006,2.500674e+000,8.320808e-005
2.351676796625933e-006,2.500674e+000,1.044273e-004
2.890618758551958e-006,2.500674e+000,1.282692e-004
3.744188932363877e-006,2.500673e+000,1.661777e-004
4.817543260295509e-006,2.500670e+000,2.138615e-004
6.289727863100369e-006,2.500663e+000,2.794266e-004
8.034992378041057e-006,2.500645e+000,3.566742e-004
1.044621977694314e-005,2.500592e+000,4.637241e-004
1.297258258638677e-005,2.500489e+000,5.755424e-004
1.520681549659633e-005,2.500329e+000,6.744862e-004
1.770822787556689e-005,2.500051e+000,7.851124e-004
1.997749676416616e-005,2.499679e+000,8.852482e-004
2.262330369342999e-005,2.499050e+000,1.001596e-003
2.598645818131393e-005,2.497886e+000,1.149416e-003
3.053563591804343e-005,2.495609e+000,1.348019e-003
3.541844841804343e-005,2.492159e+000,1.560211e-003
4.030126091804342e-005,2.487479e+000,1.770973e-003
4.518407341804342e-005,2.481421e+000,1.980066e-003
5.006688591804342e-005,2.473896e+000,2.187252e-003
5.494969841804342e-005,2.464852e+000,2.392530e-003
5.983251091804341e-005,2.454273e+000,2.595663e-003
6.471532341804341e-005,2.442175e+000,2.796173e-003
6.959813591804342e-005,2.428605e+000,2.993584e-003
7.448094841804342e-005,2.413634e+000,3.189087e-003
7.936376091804342e-005,2.397355e+000,3.380775e-003
8.424657341804343e-005,2.379876e+000,3.569603e-003
8.912938591804343e-005,2.361320e+000,3.755093e-003
9.401219841804344e-005,2.341817e+000,3.937244e-003
9.889501091804344e-005,2.321505e+000,4.115582e-003
1.037778234180435e-004,2.300524e+000,4.289865e-003
1.086606359180435e-004,2.279013e+000,4.460335e-003
1.135434484180435e-004,2.257109e+000,4.626274e-003
1.184262609180435e-004,2.234947e+000,4.788160e-003
1.233090734180435e-004,2.212654e+000,4.945517e-003
1.281918859180435e-004,2.190348e+000,5.098104e-003
1.330746984180435e-004,2.168143e+000,5.246162e-003
1.379575109180435e-004,2.146142e+000,5.388737e-003
1.428403234180435e-004,2.124437e+000,5.526543e-003
1.477231359180435e-004,2.103112e+000,5.659103e-003
1.526059484180435e-004,2.082242e+000,5.786419e-003
1.574887609180435e-004,2.061892e+000,5.908251e-003
1.623715734180435e-004,2.042116e+000,6.024599e-003
1.672543859180435e-004,2.022963e+000,6.135225e-003
1.721371984180435e-004,2.004470e+000,6.240129e-003
1.770200109180435e-004,1.986669e+000,6.339073e-003
1.819028234180435e-004,1.969585e+000,6.432056e-003
1.867856359180435e-004,1.953235e+000,6.519079e-003
1.916684484180435e-004,1.937632e+000,6.599665e-003
1.965512609180435e-004,1.922783e+000,6.674528e-003
2.014340734180435e-004,1.908694e+000,6.742716e-003
2.063168859180435e-004,1.895364e+000,6.804705e-003
2.111996984180435e-004,1.882790e+000,6.860495e-003
2.160825109180435e-004,1.870969e+000,6.909370e-003
2.209653234180435e-004,1.859893e+000,6.952047e-003
2.258481359180435e-004,1.849555e+000,6.988287e-003
2.307309484180435e-004,1.839947e+000,7.017612e-003
2.453793859180436e-004,1.815412e+000,7.066488e-003
2.516572877037579e-004,1.806853e+000,7.068799e-003
2.579351894894721e-004,1.799396e+000,7.060270e-003
2.642130912751864e-004,1.793041e+000,7.040900e-003
2.704909930609007e-004,1.787788e+000,7.010689e-003
2.767688948466150e-004,1.783637e+000,6.969637e-003
2.830467966323293e-004,1.780587e+000,6.917744e-003
2.893246984180436e-004,1.778639e+000,6.855011e-003
2.963001448466151e-004,1.777716e+000,6.772012e-003
3.032755912751865e-004,1.778106e+000,6.676557e-003
3.102510377037579e-004,1.779810e+000,6.568646e-003
3.172264841323293e-004,1.782827e+000,6.448279e-003
3.242019305609008e-004,1.787158e+000,6.315455e-003
3.311773769894722e-004,1.792802e+000,6.170176e-003
3.381528234180436e-004,1.799760e+000,6.012440e-003
3.528012609180437e-004,1.818570e+000,5.645275e-003
3.674496984180437e-004,1.843018e+000,5.229950e-003
3.772153234180437e-004,1.862381e+000,4.928589e-003
3.869809484180437e-004,1.884133e+000,4.608870e-003
3.932588502037580e-004,1.899411e+000,4.392926e-003
3.995367519894722e-004,1.915565e+000,4.171045e-003
4.058146537751866e-004,1.932595e+000,3.943229e-003
4.120925555609009e-004,1.950500e+000,3.709477e-003
4.183704573466152e-004,1.969282e+000,3.469788e-003
4.246483591323295e-004,1.988939e+000,3.224164e-003
4.309262609180437e-004,2.009473e+000,2.972603e-003
4.399943412751866e-004,2.040677e+000,2.599526e-003
4.490624216323294e-004,2.073113e+000,2.221098e-003
4.581305019894723e-004,2.106783e+000,1.837317e-003
4.671985823466152e-004,2.141684e+000,1.448184e-003
4.762666627037580e-004,2.177819e+000,1.053698e-003
4.853347430609009e-004,2.215186e+000,6.538605e-004
4.944028234180437e-004,2.253786e+000,2.486706e-004
4.999831805609008e-004,2.277844e+000,1.070451e-007
5.055635377037580e-004,2.302102e+000,-2.476974e-004
5.111438948466151e-004,2.326560e+000,-4.947429e-004
5.167242519894724e-004,2.351217e+000,-7.410293e-004
5.223046091323295e-004,2.376074e+000,-9.865566e-004
5.278849662751867e-004,2.401131e+000,-1.231325e-003
5.334653234180438e-004,2.426387e+000,-1.475334e-003
5.404407698466152e-004,2.458138e+000,-1.778325e-003
5.474162162751867e-004,2.489820e+000,-2.076470e-003
5.543916627037581e-004,2.521431e+000,-2.369769e-003
5.613671091323295e-004,2.552972e+000,-2.658221e-003
5.683425555609010e-004,2.584443e+000,-2.941827e-003
5.753180019894724e-004,2.615844e+000,-3.220587e-003
5.822934484180438e-004,2.647175e+000,-3.494501e-003
5.934541627037581e-004,2.697020e+000,-3.920988e-003
6.046148769894724e-004,2.745331e+000,-4.323614e-003
6.157755912751867e-004,2.792108e+000,-4.702378e-003
6.269363055609011e-004,2.837352e+000,-5.057281e-003
6.380970198466153e-004,2.881063e+000,-5.388323e-003
6.492577341323296e-004,2.923240e+000,-5.695504e-003
6.604184484180439e-004,2.963884e+000,-5.978823e-003
6.687889841323296e-004,2.992647e+000,-6.169815e-003
6.771595198466153e-004,3.019875e+000,-6.342727e-003
6.855300555609011e-004,3.045570e+000,-6.497558e-003
6.939005912751868e-004,3.069731e+000,-6.634308e-003
7.022711269894725e-004,3.092359e+000,-6.752978e-003
7.106416627037582e-004,3.113452e+000,-6.853566e-003
7.190121984180439e-004,3.133012e+000,-6.936073e-003
7.245925555609010e-004,3.145007e+000,-6.979826e-003
7.301729127037582e-004,3.156179e+000,-7.014897e-003
7.357532698466153e-004,3.166530e+000,-7.041289e-003
7.413336269894726e-004,3.176057e+000,-7.059000e-003
7.469139841323297e-004,3.184763e+000,-7.068031e-003
7.524943412751869e-004,3.192646e+000,-7.068381e-003
7.580746984180440e-004,3.199707e+000,-7.060051e-003
7.636550555609011e-004,3.205893e+000,-7.043099e-003
7.692354127037583e-004,3.211200e+000,-7.017583e-003
7.748157698466154e-004,3.215629e+000,-6.983504e-003
7.803961269894726e-004,3.219178e+000,-6.940861e-003
7.859764841323297e-004,3.221848e+000,-6.889655e-003
7.915568412751869e-004,3.223639e+000,-6.829885e-003
7.971371984180440e-004,3.224551e+000,-6.761551e-003
8.013224662751869e-004,3.224643e+000,-6.704890e-003
8.055077341323297e-004,3.224236e+000,-6.643694e-003
8.096930019894726e-004,3.223331e+000,-6.577964e-003
8.138782698466154e-004,3.221927e+000,-6.507698e-003
8.180635377037583e-004,3.220025e+000,-6.432898e-003
8.222488055609012e-004,3.217625e+000,-6.353563e-003
8.264340734180440e-004,3.214726e+000,-6.269693e-003
8.313168859180440e-004,3.210711e+000,-6.166366e-003
8.361996984180440e-004,3.206042e+000,-6.057472e-003
8.410825109180440e-004,3.200717e+000,-5.943011e-003
8.459653234180440e-004,3.194738e+000,-5.822985e-003
8.508481359180440e-004,3.188104e+000,-5.697391e-003
8.557309484180441e-004,3.180816e+000,-5.566232e-003
8.606137609180441e-004,3.172873e+000,-5.429506e-003
8.668916627037584e-004,3.161698e+000,-5.246065e-003
8.731695644894727e-004,3.149548e+000,-5.055209e-003
8.794474662751870e-004,3.136423e+000,-4.856937e-003
8.857253680609012e-004,3.122322e+000,-4.651250e-003
8.920032698466155e-004,3.107247e+000,-4.438147e-003
8.982811716323298e-004,3.091195e+000,-4.217630e-003
9.045590734180441e-004,3.074169e+000,-3.989697e-003
9.143246984180441e-004,3.045699e+000,-3.620707e-003
9.240903234180441e-004,3.015484e+000,-3.241734e-003
9.338559484180441e-004,2.983525e+000,-2.852776e-003
9.436215734180441e-004,2.949822e+000,-2.453833e-003
9.533871984180441e-004,2.914374e+000,-2.044906e-003
9.631528234180441e-004,2.877181e+000,-1.625995e-003
9.729184484180442e-004,2.838243e+000,-1.197100e-003
9.784988055609011e-004,2.815529e+000,-9.514750e-004
9.840791627037581e-004,2.792500e+000,-7.054027e-004
9.896595198466151e-004,2.769157e+000,-4.588828e-004
9.952398769894723e-004,2.745500e+000,-2.119152e-004
1.000820234132329e-003,2.721529e+000,3.550004e-005
1.006400591275186e-003,2.697244e+000,2.833629e-004
1.011980948418043e-003,2.672644e+000,5.316734e-004
1.018258850203757e-003,2.644692e+000,8.103410e-004
1.024536751989472e-003,2.616627e+000,1.086673e-003
1.030814653775186e-003,2.588449e+000,1.360669e-003
1.037092555560900e-003,2.560157e+000,1.632330e-003
1.043370457346614e-003,2.531753e+000,1.901656e-003
1.049648359132328e-003,2.503235e+000,2.168646e-003
1.055926260918042e-003,2.474604e+000,2.433300e-003
1.064994341275185e-003,2.433167e+000,2.810089e-003
1.074062421632328e-003,2.392278e+000,3.174928e-003
1.083130501989471e-003,2.351938e+000,3.527816e-003
1.092198582346613e-003,2.312145e+000,3.868755e-003
1.101266662703756e-003,2.272901e+000,4.197743e-003
1.110334743060898e-003,2.234205e+000,4.514782e-003
1.119402823418041e-003,2.196057e+000,4.819870e-003
1.130563537703755e-003,2.150382e+000,5.173805e-003
1.141724251989469e-003,2.106933e+000,5.498760e-003
1.152884966275183e-003,2.065712e+000,5.794734e-003
1.164045680560897e-003,2.026718e+000,6.061729e-003
1.175206394846611e-003,1.989952e+000,6.299744e-003
1.186367109132325e-003,1.955413e+000,6.508779e-003
1.197527823418039e-003,1.923101e+000,6.688833e-003
1.203108180560896e-003,1.908197e+000,6.765015e-003
1.208688537703753e-003,1.894063e+000,6.832731e-003
1.214268894846610e-003,1.880699e+000,6.891980e-003
1.219849251989468e-003,1.868104e+000,6.942764e-003
1.225429609132325e-003,1.856280e+000,6.985080e-003
1.231009966275182e-003,1.845226e+000,7.018931e-003
1.236590323418039e-003,1.834941e+000,7.044315e-003
1.242868225203753e-003,1.824363e+000,7.062211e-003
1.249146126989467e-003,1.814870e+000,7.069169e-003
1.255424028775181e-003,1.806463e+000,7.065189e-003
1.261701930560895e-003,1.799141e+000,7.050271e-003
1.267979832346609e-003,1.792904e+000,7.024415e-003
1.274257734132324e-003,1.787752e+000,6.987620e-003
1.280535635918038e-003,1.783686e+000,6.939888e-003
1.286115993060895e-003,1.781031e+000,6.888030e-003
1.291696350203752e-003,1.779265e+000,6.827958e-003
1.297276707346609e-003,1.778386e+000,6.759673e-003
1.302857064489466e-003,1.778394e+000,6.683174e-003
1.308437421632323e-003,1.779291e+000,6.598463e-003
1.314017778775180e-003,1.781075e+000,6.505538e-003
1.319598135918037e-003,1.783748e+000,6.404400e-003
1.323783403775180e-003,1.786337e+000,6.323211e-003
1.327968671632322e-003,1.789414e+000,6.237818e-003
1.332153939489465e-003,1.792979e+000,6.148222e-003
1.336339207346608e-003,1.797033e+000,6.054421e-003
1.340524475203751e-003,1.801575e+000,5.956416e-003
1.344709743060893e-003,1.806605e+000,5.854208e-003
1.348895010918036e-003,1.812123e+000,5.747795e-003
1.354475368060893e-003,1.820243e+000,5.599625e-003
1.360055725203750e-003,1.829169e+000,5.445033e-003
1.365636082346607e-003,1.838903e+000,5.284017e-003
1.371216439489464e-003,1.849444e+000,5.116579e-003
1.376796796632321e-003,1.860792e+000,4.942719e-003
1.382377153775178e-003,1.872947e+000,4.762435e-003
1.387957510918035e-003,1.885909e+000,4.575729e-003
1.395630501989464e-003,1.905048e+000,4.309080e-003
1.403303493060892e-003,1.925446e+000,4.034062e-003
1.410976484132321e-003,1.947103e+000,3.750675e-003
1.418649475203749e-003,1.970018e+000,3.458918e-003
1.426322466275177e-003,1.994192e+000,3.158793e-003
1.433995457346606e-003,2.019625e+000,2.850299e-003
1.441668448418034e-003,2.046317e+000,2.533436e-003
1.450038984132320e-003,2.076718e+000,2.180533e-003
1.458409519846605e-003,2.108069e+000,1.824068e-003
1.466780055560891e-003,2.140371e+000,1.464041e-003
1.475150591275176e-003,2.173622e+000,1.100453e-003
1.483521126989462e-003,2.207824e+000,7.333026e-004
1.491891662703747e-003,2.242975e+000,3.625909e-004
1.500262198418033e-003,2.279077e+000,-1.168251e-005
1.505145010918033e-003,2.300342e+000,-2.289986e-004
1.510027823418033e-003,2.321745e+000,-4.455946e-004
1.514910635918033e-003,2.343286e+000,-6.614705e-004
1.519793448418033e-003,2.364966e+000,-8.766262e-004
1.524676260918032e-003,2.386785e+000,-1.091062e-003
1.529559073418032e-003,2.408742e+000,-1.304777e-003
1.534441885918032e-003,2.430838e+000,-1.517773e-003
1.541417332346603e-003,2.462592e+000,-1.820175e-003
1.548392778775175e-003,2.494270e+000,-2.117712e-003
1.555368225203746e-003,2.525870e+000,-2.410383e-003
1.562343671632317e-003,2.557393e+000,-2.698188e-003
1.569319118060889e-003,2.588840e+000,-2.981128e-003
1.576294564489460e-003,2.620209e+000,-3.259201e-003
1.583270010918031e-003,2.651501e+000,-3.532410e-003
1.594430725203745e-003,2.701269e+000,-3.957252e-003
1.605591439489459e-003,2.749485e+000,-4.358078e-003
1.616752153775173e-003,2.796148e+000,-4.734886e-003
1.627912868060887e-003,2.841260e+000,-5.087677e-003
1.639073582346602e-003,2.884819e+000,-5.416452e-003
1.650234296632316e-003,2.926827e+000,-5.721209e-003
1.661395010918030e-003,2.967282e+000,-6.001949e-003
1.669765546632315e-003,2.995891e+000,-6.190996e-003
1.678136082346601e-003,3.022958e+000,-6.361884e-003
1.686506618060886e-003,3.048483e+000,-6.514613e-003
1.694877153775172e-003,3.072466e+000,-6.649183e-003
1.703247689489457e-003,3.094907e+000,-6.765594e-003
1.711618225203743e-003,3.115807e+000,-6.863847e-003
1.719988760918028e-003,3.135165e+000,-6.943941e-003
1.725569118060885e-003,3.147022e+000,-6.986122e-003
1.731149475203742e-003,3.158054e+000,-7.019680e-003
1.736729832346599e-003,3.168263e+000,-7.044617e-003
1.742310189489456e-003,3.177646e+000,-7.060932e-003
1.747890546632313e-003,3.186206e+000,-7.068624e-003
1.753470903775170e-003,3.193940e+000,-7.067695e-003
1.759051260918027e-003,3.200851e+000,-7.058144e-003
1.764631618060884e-003,3.206885e+000,-7.039600e-003
1.770211975203741e-003,3.212040e+000,-7.012513e-003
1.775792332346598e-003,3.216315e+000,-6.976882e-003
1.781372689489456e-003,3.219710e+000,-6.932706e-003
1.786953046632313e-003,3.222226e+000,-6.879987e-003
1.792533403775170e-003,3.223862e+000,-6.818723e-003
1.798113760918027e-003,3.224618e+000,-6.748915e-003
1.802299028775169e-003,3.224592e+000,-6.691140e-003
1.806484296632312e-003,3.224069e+000,-6.628849e-003
1.810669564489455e-003,3.223047e+000,-6.562043e-003
1.814854832346598e-003,3.221527e+000,-6.490722e-003
1.819040100203740e-003,3.219509e+000,-6.414885e-003
1.823225368060883e-003,3.216993e+000,-6.334533e-003
1.827410635918026e-003,3.213979e+000,-6.249666e-003
1.832990993060883e-003,3.209177e+000,-6.129528e-003
1.838571350203740e-003,3.203525e+000,-6.002285e-003
1.844151707346597e-003,3.197024e+000,-5.867939e-003
1.849732064489454e-003,3.189673e+000,-5.726488e-003
1.855312421632311e-003,3.181473e+000,-5.577934e-003
1.860892778775168e-003,3.172423e+000,-5.422276e-003
1.866473135918025e-003,3.162524e+000,-5.259514e-003
1.872053493060882e-003,3.151797e+000,-5.090052e-003
1.877633850203739e-003,3.140309e+000,-4.914907e-003
1.883214207346596e-003,3.128059e+000,-4.734078e-003
1.888794564489453e-003,3.115048e+000,-4.547567e-003
1.894374921632310e-003,3.101276e+000,-4.355372e-003
1.899955278775167e-003,3.086742e+000,-4.157495e-003
1.905535635918024e-003,3.071447e+000,-3.953934e-003
1.915301260918024e-003,3.042766e+000,-3.583456e-003
1.925066885918024e-003,3.012353e+000,-3.203149e-003
1.934832510918024e-003,2.980208e+000,-2.813013e-003
1.944598135918023e-003,2.946331e+000,-2.413049e-003
1.954363760918023e-003,2.910722e+000,-2.003256e-003
1.964129385918023e-003,2.873382e+000,-1.583635e-003
1.973895010918023e-003,2.834310e+000,-1.154184e-003
1.979475368060880e-003,2.811525e+000,-9.083748e-004
1.985055725203737e-003,2.788432e+000,-6.621565e-004
1.990636082346594e-003,2.765029e+000,-4.155295e-004
1.996216439489451e-003,2.741318e+000,-1.684938e-004
2.001796796632308e-003,2.717297e+000,7.895061e-005
2.007377153775165e-003,2.692968e+000,3.268038e-004
2.012957510918022e-003,2.668329e+000,5.750656e-004
2.019932957346593e-003,2.637186e+000,8.845427e-004
2.026908403775164e-003,2.605934e+000,1.190906e-003
2.033883850203736e-003,2.574571e+000,1.494155e-003
2.040859296632307e-003,2.543099e+000,1.794290e-003
2.047834743060879e-003,2.511516e+000,2.091310e-003
2.054810189489450e-003,2.479824e+000,2.385217e-003
2.061785635918021e-003,2.448021e+000,2.676010e-003
2.071551260918021e-003,2.403494e+000,3.075697e-003
2.081316885918021e-003,2.359739e+000,3.460320e-003
2.091082510918020e-003,2.316755e+000,3.829878e-003
2.100848135918020e-003,2.274543e+000,4.184373e-003
2.110613760918020e-003,2.233104e+000,4.523803e-003
2.120379385918020e-003,2.192436e+000,4.848169e-003
2.130145010918020e-003,2.152540e+000,5.157471e-003
2.140608180560877e-003,2.111289e+000,5.466753e-003
2.151071350203733e-003,2.072121e+000,5.749644e-003
2.161534519846590e-003,2.035035e+000,6.006144e-003
2.171997689489447e-003,2.000031e+000,6.236252e-003
2.182460859132304e-003,1.967109e+000,6.439968e-003
2.192924028775161e-003,1.936269e+000,6.617293e-003
2.203387198418018e-003,1.907512e+000,6.768227e-003
2.208967555560875e-003,1.893377e+000,6.835928e-003
2.214547912703732e-003,1.880027e+000,6.895026e-003
2.220128269846589e-003,1.867463e+000,6.945522e-003
2.225708626989446e-003,1.855685e+000,6.987416e-003
2.231288984132303e-003,1.844692e+000,7.020707e-003
2.236869341275160e-003,1.834485e+000,7.045396e-003
2.242449698418017e-003,1.825063e+000,7.061481e-003
2.249425144846589e-003,1.814467e+000,7.069257e-003
2.256400591275160e-003,1.805227e+000,7.063564e-003
2.263376037703731e-003,1.797342e+000,7.044403e-003
2.270351484132302e-003,1.790814e+000,7.011774e-003
2.277326930560874e-003,1.785642e+000,6.965676e-003
2.284302376989445e-003,1.781826e+000,6.906110e-003
2.291277823418016e-003,1.779366e+000,6.833076e-003
2.296160635918016e-003,1.778491e+000,6.774080e-003
2.301043448418016e-003,1.778295e+000,6.708875e-003
2.305926260918016e-003,1.778778e+000,6.637461e-003
2.310809073418016e-003,1.779941e+000,6.559839e-003
2.315691885918016e-003,1.781782e+000,6.476008e-003
2.320574698418015e-003,1.784302e+000,6.385969e-003
2.325457510918015e-003,1.787501e+000,6.289721e-003
2.330340323418015e-003,1.791382e+000,6.187600e-003
2.335223135918015e-003,1.795918e+000,6.079873e-003
2.340105948418015e-003,1.801111e+000,5.966542e-003
2.344988760918015e-003,1.806959e+000,5.847605e-003
2.349871573418015e-003,1.813463e+000,5.723063e-003
2.354754385918015e-003,1.820623e+000,5.592915e-003
2.359637198418015e-003,1.828438e+000,5.457163e-003
2.365915100203729e-003,1.839451e+000,5.274996e-003
2.372193001989443e-003,1.851442e+000,5.085376e-003
2.378470903775157e-003,1.864412e+000,4.888301e-003
2.384748805560871e-003,1.878361e+000,4.683772e-003
2.391026707346586e-003,1.893288e+000,4.471789e-003
2.397304609132300e-003,1.909194e+000,4.252351e-003
2.403582510918014e-003,1.926080e+000,4.025459e-003
2.413348135918013e-003,1.954337e+000,3.657866e-003
2.423113760918013e-003,1.984351e+000,3.280153e-003
