Freq.	V(vout)/(V(Vip)-V(Vim))
1.00000000000000e+00	(8.22828144517572e-05dB,-9.52477642700438e-06°)
1.02329299228075e+00	(8.22828144498286e-05dB,-9.74663697079450e-06°)
1.04712854805090e+00	(8.22828144440426e-05dB,-9.97366531051854e-06°)
1.07151930523761e+00	(8.22828147487672e-05dB,-1.02059818196073e-05°)
1.09647819614318e+00	(8.22828147391240e-05dB,-1.04437096753489e-05°)
1.12201845430196e+00	(8.22828147352668e-05dB,-1.06869749241992e-05°)
1.14815362149688e+00	(8.22828144363281e-05dB,-1.09359065486132e-05°)
1.17489755493953e+00	(8.22828144286135e-05dB,-1.11906365354331e-05°)
1.20226443461741e+00	(8.22828147275522e-05dB,-1.14512999458697e-05°)
1.23026877081238e+00	(8.22828150245623e-05dB,-1.17180349871135e-05°)
1.25892541179417e+00	(8.22828147198377e-05dB,-1.19909830856139e-05°)
1.28824955169313e+00	(8.22828147159804e-05dB,-1.22702889620658e-05°)
1.31825673855641e+00	(8.22828144093272e-05dB,-1.25561007081418e-05°)
1.34896288259165e+00	(8.22828147044086e-05dB,-1.28485698650129e-05°)
1.38038426460288e+00	(8.22828143958267e-05dB,-1.31478515036974e-05°)
1.41253754462275e+00	(8.22828146947654e-05dB,-1.34541043072816e-05°)
1.44543977074593e+00	(8.22828146909081e-05dB,-1.37674906550555e-05°)
1.47910838816821e+00	(8.22828146831936e-05dB,-1.40881767086091e-05°)
1.51356124843621e+00	(8.22828143726831e-05dB,-1.44163324999327e-05°)
1.54881661891248e+00	(8.22828146716218e-05dB,-1.47521320215704e-05°)
1.58489319246111e+00	(8.22828146639072e-05dB,-1.50957533188735e-05°)
1.62181009735893e+00	(8.22828146581213e-05dB,-1.54473785844022e-05°)
1.65958690743756e+00	(8.22828146523354e-05dB,-1.58071942545266e-05°)
1.69824365246174e+00	(8.22828146407636e-05dB,-1.61753911082777e-05°)
1.73780082874937e+00	(8.22828143321817e-05dB,-1.65521643685010e-05°)
1.77827941003892e+00	(8.22828146311204e-05dB,-1.69377138053663e-05°)
1.81970085860998e+00	(8.22828146176199e-05dB,-1.73322438422883e-05°)
1.86208713666287e+00	(8.22828143109667e-05dB,-1.77359636643149e-05°)
1.90546071796325e+00	(8.22828146002622e-05dB,-1.81490873290396e-05°)
1.94984459975804e+00	(8.22828145848331e-05dB,-1.85718338800976e-05°)
1.99526231496888e+00	(8.22828145829045e-05dB,-1.90044274633062e-05°)
2.04173794466953e+00	(8.22828145674754e-05dB,-1.94470974455092e-05°)
2.08929613085404e+00	(8.22828145559036e-05dB,-1.99000785361905e-05°)
2.13796208950223e+00	(8.22828142376785e-05dB,-2.03636109119205e-05°)
2.18776162394955e+00	(8.22828145289027e-05dB,-2.08379403437002e-05°)
2.23872113856834e+00	(8.22828142145349e-05dB,-2.13233183272728e-05°)
2.29086765276777e+00	(8.22828145019017e-05dB,-2.18200022164701e-05°)
2.34422881531992e+00	(8.22828144845440e-05dB,-2.23282553596644e-05°)
2.39883291901949e+00	(8.22828141740335e-05dB,-2.28483472393999e-05°)
2.45470891568503e+00	(8.22828144575431e-05dB,-2.33805536152752e-05°)
2.51188643150958e+00	(8.22828141354608e-05dB,-2.39251566701557e-05°)
2.57039578276886e+00	(8.22828144189704e-05dB,-2.44824451597895e-05°)
2.63026799189538e+00	(8.22828144016126e-05dB,-2.50527145659105e-05°)
2.69153480392691e+00	(8.22828143861836e-05dB,-2.56362672529063e-05°)
2.75422870333816e+00	(8.22828143630399e-05dB,-2.62334126281357e-05°)
2.81838293126445e+00	(8.22828143418249e-05dB,-2.68444673059807e-05°)
2.88403150312660e+00	(8.22828143186813e-05dB,-2.74697552757200e-05°)
2.95120922666638e+00	(8.22828142936090e-05dB,-2.81096080733116e-05°)
3.01995172040201e+00	(8.22828139695980e-05dB,-2.87643649571784e-05°)
3.09029543251359e+00	(8.22828142473217e-05dB,-2.94343730880869e-05°)
3.16227766016837e+00	(8.22828139175248e-05dB,-3.01199877132167e-05°)
3.23593656929628e+00	(8.22828141952485e-05dB,-3.08215723545171e-05°)
3.31131121482591e+00	(8.22828141663190e-05dB,-3.15394990014517e-05°)
3.38844156139202e+00	(8.22828138365221e-05dB,-3.22741483082316e-05°)
3.46736850452531e+00	(8.22828144035413e-05dB,-3.30259097956432e-05°)
3.54813389233575e+00	(8.22828140698871e-05dB,-3.37951820575782e-05°)
3.63078054770101e+00	(8.22828137323757e-05dB,-3.45823729723723e-05°)
3.71535229097172e+00	(8.22828139927417e-05dB,-3.53878999190681e-05°)
3.80189396320560e+00	(8.22828139522403e-05dB,-3.62121899987152e-05°)
3.89045144994280e+00	(8.22828136185861e-05dB,-3.70556802608247e-05°)
3.98107170553496e+00	(8.22828138731662e-05dB,-3.79188179350984e-05°)
4.07380277804112e+00	(8.22828138326648e-05dB,-3.88020606685562e-05°)
4.16869383470335e+00	(8.22828137844489e-05dB,-3.97058767681865e-05°)
4.26579518801592e+00	(8.22828140390289e-05dB,-4.06307454492488e-05°)
4.36515832240165e+00	(8.22828136880171e-05dB,-4.15771570893597e-05°)
4.46683592150962e+00	(8.22828136301580e-05dB,-4.25456134884982e-05°)
4.57088189614874e+00	(8.22828138789521e-05dB,-4.35366281350661e-05°)
4.67735141287197e+00	(8.22828135202257e-05dB,-4.45507264781466e-05°)
4.78630092322637e+00	(8.22828134546520e-05dB,-4.55884462061045e-05°)
4.89778819368445e+00	(8.22828133967929e-05dB,-4.66503375316754e-05°)
5.01187233627271e+00	(8.22828136301580e-05dB,-4.77369634836957e-05°)
5.12861383991364e+00	(8.22828135607271e-05dB,-4.88489002056285e-05°)
5.24807460249771e+00	(8.22828131846429e-05dB,-4.99867372610422e-05°)
5.37031796370252e+00	(8.22828131074974e-05dB,-5.11510779462043e-05°)
5.49540873857623e+00	(8.22828133331479e-05dB,-5.23425396099579e-05°)
5.62341325190348e+00	(8.22828129474206e-05dB,-5.35617539810485e-05°)
5.75439937337156e+00	(8.22828131537847e-05dB,-5.48093675030734e-05°)
5.88843655355588e+00	(8.22828127642001e-05dB,-5.60860416772363e-05°)
6.02559586074356e+00	(8.22828129724929e-05dB,-5.73924534130830e-05°)
6.16595001861481e+00	(8.22828128683465e-05dB,-5.87292953874084e-05°)
6.30957344480192e+00	(8.22828127642001e-05dB,-6.00972764115223e-05°)
6.45654229034654e+00	(8.22828126484819e-05dB,-6.14971218070713e-05°)
6.60693448007594e+00	(8.22828122318964e-05dB,-6.29295737906131e-05°)
6.76082975391980e+00	(8.22828124131882e-05dB,-6.43953918671501e-05°)
6.91830970918935e+00	(8.22828122878268e-05dB,-6.58953532328290e-05°)
7.07945784384136e+00	(8.22828121508937e-05dB,-6.74302531870202e-05°)
7.24435960074988e+00	(8.22828120139604e-05dB,-6.90009055539961e-05°)
7.41310241300916e+00	(8.22828118673841e-05dB,-7.06081431144319e-05°)
7.58577575029182e+00	(8.22828114180117e-05dB,-7.22528180469564e-05°)
7.76247116628690e+00	(8.22828115530163e-05dB,-7.39358023799887e-05°)
7.94328234724279e+00	(8.22828113852249e-05dB,-7.56579884540989e-05°)
8.12830516164097e+00	(8.22828115144435e-05dB,-7.74202893951396e-05°)
8.31763771102669e+00	(8.22828110284271e-05dB,-7.92236395983965e-05°)
8.51138038202374e+00	(8.22828108355634e-05dB,-8.10689952240176e-05°)
8.70963589956078e+00	(8.22828109339239e-05dB,-8.29573347039815e-05°)
8.91250938133743e+00	(8.22828107217739e-05dB,-8.48896592608759e-05°)
9.12010839355907e+00	(8.22828105038379e-05dB,-8.68669934387581e-05°)
9.33254300796988e+00	(8.22828102685443e-05dB,-8.88903856463824e-05°)
9.54992586021433e+00	(8.22828100274647e-05dB,-9.09609087130801e-05°)
9.77237220955808e+00	(8.22828097728846e-05dB,-9.30796604575879e-05°)
9.99999999999997e+00	(8.22828095067328e-05dB,-9.52477642701253e-05°)
1.02329299228075e+01	(8.22828092251518e-05dB,-9.74663697080325e-05°)
1.04712854805090e+01	(8.22828092405809e-05dB,-9.97366531052790e-05°)
1.07151930523760e+01	(8.22828089339277e-05dB,-1.02059818196173e-04°)
1.09647819614318e+01	(8.22828083148353e-05dB,-1.04437096753597e-04°)
1.12201845430196e+01	(8.22828082781912e-05dB,-1.06869749242108e-04°)
1.14815362149688e+01	(8.22828079310366e-05dB,-1.09359065486256e-04°)
1.17489755493953e+01	(8.22828072637283e-05dB,-1.11906365354464e-04°)
1.20226443461741e+01	(8.22828071769397e-05dB,-1.14512999458839e-04°)
1.23026877081238e+01	(8.22828067757833e-05dB,-1.17180349871287e-04°)
1.25892541179416e+01	(8.22828066600651e-05dB,-1.19909830856302e-04°)
1.28824955169313e+01	(8.22828059136827e-05dB,-1.22702889620833e-04°)
1.31825673855640e+01	(8.22828057497486e-05dB,-1.25561007081605e-04°)
1.34896288259165e+01	(8.22828052714467e-05dB,-1.28485698650330e-04°)
1.38038426460288e+01	(8.22828044614193e-05dB,-1.31478515037189e-04°)
1.41253754462275e+01	(8.22828039271869e-05dB,-1.34541043073046e-04°)
1.44543977074592e+01	(8.22828036764641e-05dB,-1.37674906550802e-04°)
1.47910838816820e+01	(8.22828030901586e-05dB,-1.40881767086356e-04°)
1.51356124843620e+01	(8.22828027873627e-05dB,-1.44163324999610e-04°)
1.54881661891248e+01	(8.22828021489839e-05dB,-1.47521320216008e-04°)
1.58489319246111e+01	(8.22828014797470e-05dB,-1.50957533189061e-04°)
1.62181009735892e+01	(8.22828007835092e-05dB,-1.54473785844371e-04°)
1.65958690743755e+01	(8.22828003534232e-05dB,-1.58071942545640e-04°)
1.69824365246174e+01	(8.22827995838971e-05dB,-1.61753911083178e-04°)
1.73780082874937e+01	(8.22827987815843e-05dB,-1.65521643685439e-04°)
1.77827941003892e+01	(8.22827979426273e-05dB,-1.69377138054123e-04°)
1.81970085860998e+01	(8.22827973601791e-05dB,-1.73322438423376e-04°)
1.86208713666286e+01	(8.22827964363621e-05dB,-1.77359636643678e-04°)
1.90546071796324e+01	(8.22827957709825e-05dB,-1.81490873290962e-04°)
1.94984459975804e+01	(8.22827947661628e-05dB,-1.85718338801583e-04°)
1.99526231496887e+01	(8.22827940082086e-05dB,-1.90044274633712e-04°)
2.04173794466952e+01	(8.22827926003038e-05dB,-1.94470974455789e-04°)
2.08929613085403e+01	(8.22827917401319e-05dB,-1.99000785362652e-04°)
2.13796208950222e+01	(8.22827908240294e-05dB,-2.03636109120005e-04°)
2.18776162394954e+01	(8.22827895453433e-05dB,-2.08379403437859e-04°)
2.23872113856833e+01	(8.22827885193086e-05dB,-2.13233183273647e-04°)
2.29086765276776e+01	(8.22827874257716e-05dB,-2.18200022165685e-04°)
2.34422881531991e+01	(8.22827856629977e-05dB,-2.23282553597699e-04°)
2.39883291901948e+01	(8.22827847430380e-05dB,-2.28483472395128e-04°)
2.45470891568502e+01	(8.22827831326264e-05dB,-2.33805536153963e-04°)
2.51188643150957e+01	(8.22827817536512e-05dB,-2.39251566702854e-04°)
2.57039578276885e+01	(8.22827800005205e-05dB,-2.44824451599285e-04°)
2.63026799189537e+01	(8.22827784653257e-05dB,-2.50527145660595e-04°)
2.69153480392690e+01	(8.22827768375563e-05dB,-2.56362672530659e-04°)
2.75422870333815e+01	(8.22827748182738e-05dB,-2.62334126283067e-04°)
2.81838293126444e+01	(8.22827730072839e-05dB,-2.68444673061640e-04°)
2.88403150312659e+01	(8.22827711037195e-05dB,-2.74697552759164e-04°)
2.95120922666637e+01	(8.22827690863656e-05dB,-2.81096080735221e-04°)
3.01995172040200e+01	(8.22827669610080e-05dB,-2.87643649574039e-04°)
3.09029543251358e+01	(8.22827650285141e-05dB,-2.94343730883285e-04°)
3.16227766016837e+01	(8.22827623708527e-05dB,-3.01199877134756e-04°)
3.23593656929627e+01	(8.22827598886974e-05dB,-3.08215723547945e-04°)
3.31131121482590e+01	(8.22827572734660e-05dB,-3.15394990017490e-04°)
3.38844156139201e+01	(8.22827545193729e-05dB,-3.22741483085501e-04°)
3.46736850452530e+01	(8.22827519214993e-05dB,-3.30259097959846e-04°)
3.54813389233574e+01	(8.22827488819679e-05dB,-3.37951820579440e-04°)
3.63078054770100e+01	(8.22827456823597e-05dB,-3.45823729727642e-04°)
3.71535229097171e+01	(8.22827423111028e-05dB,-3.53878999194880e-04°)
3.80189396320559e+01	(8.22827390671360e-05dB,-3.62121899991652e-04°)
3.89045144994279e+01	(8.22827353410099e-05dB,-3.70556802613069e-04°)
3.98107170553495e+01	(8.22827317325307e-05dB,-3.79188179356151e-04°)
4.07380277804111e+01	(8.22827276206774e-05dB,-3.88020606691099e-04°)
4.16869383470333e+01	(8.22827236013985e-05dB,-3.97058767687798e-04°)
4.26579518801591e+01	(8.22827193641838e-05dB,-4.06307454498845e-04°)
4.36515832240164e+01	(8.22827149071045e-05dB,-4.15771570900409e-04°)
4.46683592150961e+01	(8.22827102031597e-05dB,-4.25456134892280e-04°)
4.57088189614873e+01	(8.22827052484921e-05dB,-4.35366281358482e-04°)
4.67735141287196e+01	(8.22827003420404e-05dB,-4.45507264789846e-04°)
4.78630092322636e+01	(8.22826948473545e-05dB,-4.55884462070024e-04°)
4.89778819368444e+01	(8.22826890730164e-05dB,-4.66503375326375e-04°)
5.01187233627270e+01	(8.22826829978109e-05dB,-4.77369634847266e-04°)
5.12861383991362e+01	(8.22826769071763e-05dB,-4.88489002067332e-04°)
5.24807460249770e+01	(8.22826704886735e-05dB,-4.99867372622258e-04°)
5.37031796370250e+01	(8.22826637249447e-05dB,-5.11510779474726e-04°)
5.49540873857622e+01	(8.22826566005609e-05dB,-5.23425396113171e-04°)
5.62341325190346e+01	(8.22826490981643e-05dB,-5.35617539825048e-04°)
5.75439937337154e+01	(8.22826411926826e-05dB,-5.48093675046339e-04°)
5.88843655355586e+01	(8.22826331849832e-05dB,-5.60860416789084e-04°)
6.02559586074355e+01	(8.22826247394832e-05dB,-5.73924534148747e-04°)
6.16595001861479e+01	(8.22826158330391e-05dB,-5.87292953893282e-04°)
6.30957344480190e+01	(8.22826058523444e-05dB,-6.00972764135796e-04°)
6.45654229034652e+01	(8.22825962689488e-05dB,-6.14971218092756e-04°)
6.60693448007593e+01	(8.22825861744645e-05dB,-6.29295737929750e-04°)
6.76082975391978e+01	(8.22825752236655e-05dB,-6.43953918696809e-04°)
6.91830970918933e+01	(8.22825640067147e-05dB,-6.58953532355409e-04°)
7.07945784384134e+01	(8.22825518890905e-05dB,-6.74302531899261e-04°)
7.24435960074986e+01	(8.22825397406082e-05dB,-6.90009055571098e-04°)
7.41310241300914e+01	(8.22825269421753e-05dB,-7.06081431177683e-04°)
7.58577575029180e+01	(8.22825128419127e-05dB,-7.22528180505315e-04°)
7.76247116628688e+01	(8.22824995343197e-05dB,-7.39358023838192e-04°)
7.94328234724277e+01	(8.22824845700278e-05dB,-7.56579884582035e-04°)
8.12830516164095e+01	(8.22824685083417e-05dB,-7.74202893995379e-04°)
8.31763771102667e+01	(8.22824525257297e-05dB,-7.92236396031092e-04°)
8.51138038202372e+01	(8.22824350657820e-05dB,-8.10689952290675e-04°)
8.70963589956076e+01	(8.22824173165388e-05dB,-8.29573347093926e-04°)
8.91250938133741e+01	(8.22823989057732e-05dB,-8.48896592666739e-04°)
9.12010839355905e+01	(8.22823792008924e-05dB,-8.68669934449708e-04°)
9.33254300796986e+01	(8.22823587573438e-05dB,-8.88903856530396e-04°)
9.54992586021431e+01	(8.22823375230541e-05dB,-9.09609087202133e-04°)
9.77237220955805e+01	(8.22823145394910e-05dB,-9.30796604652312e-04°)
9.99999999999995e+01	(8.22822906629691e-05dB,-9.52477642783155e-04°)
1.02329299228075e+02	(8.22822667459459e-05dB,-9.74663697168081e-04°)
1.04712854805089e+02	(8.22822402966227e-05dB,-9.97366531146825e-04°)
1.07151930523760e+02	(8.22822133902126e-05dB,-1.02059818206249e-03°)
1.09647819614318e+02	(8.22821853420496e-05dB,-1.04437096764393e-03°)
1.12201845430196e+02	(8.22821554886827e-05dB,-1.06869749253677e-03°)
1.14815362149688e+02	(8.22821243566297e-05dB,-1.09359065498652e-03°)
1.17489755493952e+02	(8.22820921753983e-05dB,-1.11906365367746e-03°)
1.20226443461741e+02	(8.22820579633126e-05dB,-1.14512999473072e-03°)
1.23026877081237e+02	(8.22820222372470e-05dB,-1.17180349886537e-03°)
1.25892541179416e+02	(8.22819849200562e-05dB,-1.19909830872644e-03°)
1.28824955169313e+02	(8.22819459230229e-05dB,-1.22702889638343e-03°)
1.31825673855640e+02	(8.22819045344801e-05dB,-1.25561007100368e-03°)
1.34896288259165e+02	(8.22818618807517e-05dB,-1.28485698670434e-03°)
1.38038426460288e+02	(8.22818166445787e-05dB,-1.31478515058732e-03°)
1.41253754462275e+02	(8.22817699214269e-05dB,-1.34541043096129e-03°)
1.44543977074592e+02	(8.22817210015580e-05dB,-1.37674906575536e-03°)
1.47910838816820e+02	(8.22816688589372e-05dB,-1.40881767112859e-03°)
1.51356124843620e+02	(8.22816151811216e-05dB,-1.44163325028008e-03°)
1.54881661891247e+02	(8.22815586373519e-05dB,-1.47521320246437e-03°)
1.58489319246110e+02	(8.22814990829804e-05dB,-1.50957533221667e-03°)
1.62181009735892e+02	(8.22814372856044e-05dB,-1.54473785879308e-03°)
1.65958690743755e+02	(8.22813724949843e-05dB,-1.58071942583076e-03°)
1.69824365246173e+02	(8.22813045529720e-05dB,-1.61753911123291e-03°)
1.73780082874936e+02	(8.22812332994905e-05dB,-1.65521643728422e-03°)
1.77827941003891e+02	(8.22811588656871e-05dB,-1.69377138100179e-03°)
1.81970085860997e+02	(8.22810807636168e-05dB,-1.73322438472727e-03°)
1.86208713666286e+02	(8.22809991302127e-05dB,-1.77359636696558e-03°)
1.90546071796323e+02	(8.22809134408858e-05dB,-1.81490873347624e-03°)
1.94984459975803e+02	(8.22808231999763e-05dB,-1.85718338862298e-03°)
1.99526231496887e+02	(8.22807303187633e-05dB,-1.90044274698769e-03°)
2.04173794466952e+02	(8.22806315301361e-05dB,-1.94470974525498e-03°)
2.08929613085403e+02	(8.22805290327406e-05dB,-1.99000785437347e-03°)
2.13796208950222e+02	(8.22804210599457e-05dB,-2.03636109200042e-03°)
2.18776162394954e+02	(8.22803082674877e-05dB,-2.08379403523620e-03°)
2.23872113856832e+02	(8.22801903834289e-05dB,-2.13233183365542e-03°)
2.29086765276776e+02	(8.22800665148106e-05dB,-2.18200022264153e-03°)
2.34422881531991e+02	(8.22799366770618e-05dB,-2.23282553703209e-03°)
2.39883291901947e+02	(8.22798011594780e-05dB,-2.28483472508185e-03°)
2.45470891568501e+02	(8.22796590324563e-05dB,-2.33805536275105e-03°)
2.51188643150956e+02	(8.22795105602201e-05dB,-2.39251566832660e-03°)
2.57039578276885e+02	(8.22793550870327e-05dB,-2.44824451738374e-03°)
2.63026799189536e+02	(8.22791916331469e-05dB,-2.50527145809632e-03°)
2.69153480392690e+02	(8.22790210220903e-05dB,-2.56362672690355e-03°)
2.75422870333815e+02	(8.22788425364103e-05dB,-2.62334126454184e-03°)
2.81838293126443e+02	(8.22786551481434e-05dB,-2.68444673244996e-03°)
2.88403150312659e+02	(8.22784590096520e-05dB,-2.74697552955633e-03°)
2.95120922666637e+02	(8.22782539627878e-05dB,-2.81096080945741e-03°)
3.01995172040200e+02	(8.22780385977175e-05dB,-2.87643649799616e-03°)
3.09029543251357e+02	(8.22778136126075e-05dB,-2.94343731124995e-03°)
3.16227766016836e+02	(8.22775778657049e-05dB,-3.01199877393753e-03°)
3.23593656929626e+02	(8.22773314090828e-05dB,-3.08215723825466e-03°)
3.31131121482589e+02	(8.22770730219144e-05dB,-3.15394990314858e-03°)
3.38844156139200e+02	(8.22768021082509e-05dB,-3.22741483404137e-03°)
3.46736850452529e+02	(8.22765186140903e-05dB,-3.30259098301271e-03°)
3.54813389233573e+02	(8.22762221614200e-05dB,-3.37951820945283e-03°)
3.63078054770099e+02	(8.22759114464816e-05dB,-3.45823730119650e-03°)
3.71535229097170e+02	(8.22755863149841e-05dB,-3.53878999614924e-03°)
3.80189396320558e+02	(8.22752453956669e-05dB,-3.62121900441738e-03°)
3.89045144994278e+02	(8.22748887791758e-05dB,-3.70556803095345e-03°)
3.98107170553494e+02	(8.22745149997470e-05dB,-3.79188179872919e-03°)
4.07380277804110e+02	(8.22741240805242e-05dB,-3.88020607244825e-03°)
4.16869383470332e+02	(8.22737144670262e-05dB,-3.97058768281127e-03°)
4.26579518801589e+02	(8.22732851910773e-05dB,-4.06307455134608e-03°)
4.36515832240163e+02	(8.22728364339695e-05dB,-4.15771571581641e-03°)
4.46683592150960e+02	(8.22723662014924e-05dB,-4.25456135622234e-03°)
4.57088189614872e+02	(8.22718739864145e-05dB,-4.35366282140641e-03°)
4.67735141287195e+02	(8.22713579970324e-05dB,-4.45507265627946e-03°)
4.78630092322635e+02	(8.22708182198457e-05dB,-4.55884462968064e-03°)
4.89778819368442e+02	(8.22702530405855e-05dB,-4.66503376288641e-03°)
5.01187233627268e+02	(8.22696608295537e-05dB,-4.77369635878354e-03°)
5.12861383991361e+02	(8.22690407477934e-05dB,-4.88489003172163e-03°)
5.24807460249769e+02	(8.22683916284794e-05dB,-4.99867373806106e-03°)
5.37031796370249e+02	(8.22677119171305e-05dB,-5.11510780743242e-03°)
5.49540873857620e+02	(8.22670002810589e-05dB,-5.23425397472410e-03°)
5.62341325190345e+02	(8.22662547221969e-05dB,-5.35617541281499e-03°)
5.75439937337152e+02	(8.22654740698620e-05dB,-5.48093676606955e-03°)
5.88843655355584e+02	(8.22646573346637e-05dB,-5.60860418461312e-03°)
6.02559586074353e+02	(8.22638010797713e-05dB,-5.73924535940573e-03°)
6.16595001861477e+02	(8.22629050506049e-05dB,-5.87292955813259e-03°)
6.30957344480188e+02	(8.22619671044491e-05dB,-6.00972766193086e-03°)
6.45654229034650e+02	(8.22609847012893e-05dB,-6.14971220297183e-03°)
6.60693448007591e+02	(8.22599557832703e-05dB,-6.29295740291836e-03°)
6.76082975391976e+02	(8.22588785066153e-05dB,-6.43953921227831e-03°)
6.91830970918931e+02	(8.22577505781754e-05dB,-6.58953535067447e-03°)
