Freq.	(V(vp)-V(vm))/(I(R1)-I(R4))
1.00000000000000e+00	-1.01001040110504e+02,-1.02010040399970e-02
1.02329299228075e+00	-1.01001040110504e+02,-1.04386159483552e-02
1.04712854805090e+00	-1.01001040110504e+02,-1.06817625490628e-02
1.07151930523761e+00	-1.01001040110504e+02,-1.09305727616617e-02
1.09647819614318e+00	-1.01001040110504e+02,-1.11851785086227e-02
1.12201845430196e+00	-1.01001040110504e+02,-1.14457147852848e-02
1.14815362149688e+00	-1.01001040110504e+02,-1.17123197314252e-02
1.17489755493953e+00	-1.01001040110504e+02,-1.19851347045196e-02
1.20226443461741e+00	-1.01001040110504e+02,-1.22643043546746e-02
1.23026877081238e+00	-1.01001040110504e+02,-1.25499767013371e-02
1.25892541179417e+00	-1.01001040110504e+02,-1.28423032117650e-02
1.28824955169313e+00	-1.01001040110504e+02,-1.31414388813441e-02
1.31825673855641e+00	-1.01001040110504e+02,-1.34475423157639e-02
1.34896288259165e+00	-1.01001040110504e+02,-1.37607758151217e-02
1.38038426460288e+00	-1.01001040110504e+02,-1.40813054599593e-02
1.41253754462275e+00	-1.01001040110504e+02,-1.44093011993424e-02
1.44543977074593e+00	-1.01001040110504e+02,-1.47449369409488e-02
1.47910838816821e+00	-1.01001040110504e+02,-1.50883906432945e-02
1.51356124843621e+00	-1.01001040110504e+02,-1.54398444100784e-02
1.54881661891248e+00	-1.01001040110504e+02,-1.57994845867380e-02
1.58489319246111e+00	-1.01001040110504e+02,-1.61675018592574e-02
1.62181009735893e+00	-1.01001040110504e+02,-1.65440913552652e-02
1.65958690743756e+00	-1.01001040110504e+02,-1.69294527474934e-02
1.69824365246174e+00	-1.01001040110504e+02,-1.73237903596592e-02
1.73780082874937e+00	-1.01001040110504e+02,-1.77273132747801e-02
1.77827941003892e+00	-1.01001040110504e+02,-1.81402354460476e-02
1.81970085860998e+00	-1.01001040110504e+02,-1.85627758102627e-02
1.86208713666287e+00	-1.01001040110504e+02,-1.89951584039217e-02
1.90546071796325e+00	-1.01001040110504e+02,-1.94376124819958e-02
1.94984459975804e+00	-1.01001040110504e+02,-1.98903726394948e-02
1.99526231496888e+00	-1.01001040110504e+02,-2.03536789358483e-02
2.04173794466953e+00	-1.01001040110504e+02,-2.08277770221852e-02
2.08929613085404e+00	-1.01001040110504e+02,-2.13129182715886e-02
2.13796208950223e+00	-1.01001040110504e+02,-2.18093599123699e-02
2.18776162394955e+00	-1.01001040110504e+02,-2.23173651644565e-02
2.23872113856834e+00	-1.01001040110504e+02,-2.28372033789585e-02
2.29086765276777e+00	-1.01001040110504e+02,-2.33691501809782e-02
2.34422881531992e+00	-1.01001040110504e+02,-2.39134876157519e-02
2.39883291901949e+00	-1.01001040110504e+02,-2.44705042981915e-02
2.45470891568503e+00	-1.01001040110504e+02,-2.50404955659152e-02
2.51188643150958e+00	-1.01001040110505e+02,-2.56237636358387e-02
2.57039578276886e+00	-1.01001040110504e+02,-2.62206177644124e-02
2.63026799189538e+00	-1.01001040110504e+02,-2.68313744115955e-02
2.69153480392691e+00	-1.01001040110504e+02,-2.74563574086467e-02
2.75422870333816e+00	-1.01001040110504e+02,-2.80958981298242e-02
2.81838293126445e+00	-1.01001040110504e+02,-2.87503356680827e-02
2.88403150312660e+00	-1.01001040110504e+02,-2.94200170148686e-02
2.95120922666638e+00	-1.01001040110504e+02,-3.01052972440955e-02
3.01995172040201e+00	-1.01001040110504e+02,-3.08065397004116e-02
3.09029543251359e+00	-1.01001040110504e+02,-3.15241161918502e-02
3.16227766016837e+00	-1.01001040110504e+02,-3.22584071869645e-02
3.23593656929628e+00	-1.01001040110504e+02,-3.30098020165603e-02
3.31131121482591e+00	-1.01001040110504e+02,-3.37786990801213e-02
3.38844156139202e+00	-1.01001040110504e+02,-3.45655060570482e-02
3.46736850452531e+00	-1.01001040110504e+02,-3.53706401228156e-02
3.54813389233575e+00	-1.01001040110504e+02,-3.61945281701613e-02
3.63078054770101e+00	-1.01001040110504e+02,-3.70376070354347e-02
3.71535229097172e+00	-1.01001040110504e+02,-3.79003237302089e-02
3.80189396320560e+00	-1.01001040110504e+02,-3.87831356782945e-02
3.89045144994280e+00	-1.01001040110504e+02,-3.96865109582726e-02
3.98107170553496e+00	-1.01001040110504e+02,-4.06109285516736e-02
4.07380277804112e+00	-1.01001040110504e+02,-4.15568785969419e-02
4.16869383470335e+00	-1.01001040110504e+02,-4.25248626493126e-02
4.26579518801592e+00	-1.01001040110504e+02,-4.35153939467435e-02
4.36515832240165e+00	-1.01001040110505e+02,-4.45289976820390e-02
4.46683592150962e+00	-1.01001040110504e+02,-4.55662112813161e-02
4.57088189614874e+00	-1.01001040110504e+02,-4.66275846889552e-02
4.67735141287197e+00	-1.01001040110504e+02,-4.77136806591847e-02
4.78630092322637e+00	-1.01001040110504e+02,-4.88250750544656e-02
4.89778819368445e+00	-1.01001040110504e+02,-4.99623571508169e-02
5.01187233627271e+00	-1.01001040110504e+02,-5.11261299502591e-02
5.12861383991364e+00	-1.01001040110504e+02,-5.23170105005353e-02
5.24807460249771e+00	-1.01001040110504e+02,-5.35356302222765e-02
5.37031796370252e+00	-1.01001040110504e+02,-5.47826352437891e-02
5.49540873857623e+00	-1.01001040110504e+02,-5.60586867436421e-02
5.62341325190348e+00	-1.01001040110504e+02,-5.73644613012308e-02
5.75439937337156e+00	-1.01001040110504e+02,-5.87006512555102e-02
5.88843655355588e+00	-1.01001040110504e+02,-6.00679650720800e-02
6.02559586074356e+00	-1.01001040110504e+02,-6.14671277188246e-02
6.16595001861481e+00	-1.01001040110504e+02,-6.28988810502992e-02
6.30957344480192e+00	-1.01001040110504e+02,-6.43639842010718e-02
6.45654229034654e+00	-1.01001040110504e+02,-6.58632139882258e-02
6.60693448007594e+00	-1.01001040110504e+02,-6.73973653232394e-02
6.76082975391980e+00	-1.01001040110504e+02,-6.89672516334568e-02
6.91830970918935e+00	-1.01001040110504e+02,-7.05737052933798e-02
7.07945784384136e+00	-1.01001040110504e+02,-7.22175780660027e-02
7.24435960074988e+00	-1.01001040110504e+02,-7.38997415544289e-02
7.41310241300916e+00	-1.01001040110504e+02,-7.56210876640057e-02
7.58577575029182e+00	-1.01001040110504e+02,-7.73825290752256e-02
7.76247116628690e+00	-1.01001040110504e+02,-7.91849997276403e-02
7.94328234724279e+00	-1.01001040110504e+02,-8.10294553150476e-02
8.12830516164097e+00	-1.01001040110504e+02,-8.29168737922150e-02
8.31763771102669e+00	-1.01001040110504e+02,-8.48482558934012e-02
8.51138038202374e+00	-1.01001040110504e+02,-8.68246256629615e-02
8.70963589956078e+00	-1.01001040110504e+02,-8.88470309983081e-02
8.91250938133743e+00	-1.01001040110504e+02,-9.09165442055197e-02
9.12010839355907e+00	-1.01001040110504e+02,-9.30342625678917e-02
9.33254300796988e+00	-1.01001040110504e+02,-9.52013089277312e-02
9.54992586021433e+00	-1.01001040110504e+02,-9.74188322817026e-02
9.77237220955808e+00	-1.01001040110504e+02,-9.96880083900405e-02
9.99999999999997e+00	-1.01001040110504e+02,-1.02010040399953e-01
1.02329299228075e+01	-1.01001040110504e+02,-1.04386159483549e-01
1.04712854805090e+01	-1.01001040110504e+02,-1.06817625490617e-01
1.07151930523760e+01	-1.01001040110504e+02,-1.09305727616618e-01
1.09647819614318e+01	-1.01001040110504e+02,-1.11851785086234e-01
1.12201845430196e+01	-1.01001040110504e+02,-1.14457147852837e-01
1.14815362149688e+01	-1.01001040110504e+02,-1.17123197314250e-01
1.17489755493953e+01	-1.01001040110504e+02,-1.19851347045188e-01
1.20226443461741e+01	-1.01001040110504e+02,-1.22643043546749e-01
1.23026877081238e+01	-1.01001040110504e+02,-1.25499767013372e-01
1.25892541179416e+01	-1.01001040110504e+02,-1.28423032117651e-01
1.28824955169313e+01	-1.01001040110504e+02,-1.31414388813439e-01
1.31825673855640e+01	-1.01001040110504e+02,-1.34475423157650e-01
1.34896288259165e+01	-1.01001040110504e+02,-1.37607758151212e-01
1.38038426460288e+01	-1.01001040110504e+02,-1.40813054599600e-01
1.41253754462275e+01	-1.01001040110504e+02,-1.44093011993418e-01
1.44543977074592e+01	-1.01001040110504e+02,-1.47449369409491e-01
1.47910838816820e+01	-1.01001040110504e+02,-1.50883906432949e-01
1.51356124843620e+01	-1.01001040110505e+02,-1.54398444100782e-01
1.54881661891248e+01	-1.01001040110504e+02,-1.57994845867381e-01
1.58489319246111e+01	-1.01001040110504e+02,-1.61675018592569e-01
1.62181009735892e+01	-1.01001040110504e+02,-1.65440913552637e-01
1.65958690743755e+01	-1.01001040110504e+02,-1.69294527474939e-01
1.69824365246174e+01	-1.01001040110504e+02,-1.73237903596587e-01
1.73780082874937e+01	-1.01001040110504e+02,-1.77273132747796e-01
1.77827941003892e+01	-1.01001040110504e+02,-1.81402354460476e-01
1.81970085860998e+01	-1.01001040110504e+02,-1.85627758102634e-01
1.86208713666286e+01	-1.01001040110504e+02,-1.89951584039213e-01
1.90546071796324e+01	-1.01001040110504e+02,-1.94376124819955e-01
1.94984459975804e+01	-1.01001040110504e+02,-1.98903726394949e-01
1.99526231496887e+01	-1.01001040110504e+02,-2.03536789358480e-01
2.04173794466952e+01	-1.01001040110504e+02,-2.08277770221856e-01
2.08929613085403e+01	-1.01001040110504e+02,-2.13129182715887e-01
2.13796208950222e+01	-1.01001040110504e+02,-2.18093599123691e-01
2.18776162394954e+01	-1.01001040110504e+02,-2.23173651644561e-01
2.23872113856833e+01	-1.01001040110504e+02,-2.28372033789586e-01
2.29086765276776e+01	-1.01001040110504e+02,-2.33691501809787e-01
2.34422881531991e+01	-1.01001040110504e+02,-2.39134876157520e-01
2.39883291901948e+01	-1.01001040110504e+02,-2.44705042981916e-01
2.45470891568502e+01	-1.01001040110504e+02,-2.50404955659155e-01
2.51188643150957e+01	-1.01001040110504e+02,-2.56237636358387e-01
2.57039578276885e+01	-1.01001040110504e+02,-2.62206177644121e-01
2.63026799189537e+01	-1.01001040110504e+02,-2.68313744115952e-01
2.69153480392690e+01	-1.01001040110504e+02,-2.74563574086465e-01
2.75422870333815e+01	-1.01001040110504e+02,-2.80958981298237e-01
2.81838293126444e+01	-1.01001040110504e+02,-2.87503356680826e-01
2.88403150312659e+01	-1.01001040110504e+02,-2.94200170148683e-01
2.95120922666637e+01	-1.01001040110504e+02,-3.01052972440953e-01
3.01995172040200e+01	-1.01001040110504e+02,-3.08065397004118e-01
3.09029543251358e+01	-1.01001040110504e+02,-3.15241161918503e-01
3.16227766016837e+01	-1.01001040110504e+02,-3.22584071869646e-01
3.23593656929627e+01	-1.01001040110504e+02,-3.30098020165600e-01
3.31131121482590e+01	-1.01001040110504e+02,-3.37786990801210e-01
3.38844156139201e+01	-1.01001040110504e+02,-3.45655060570481e-01
3.46736850452530e+01	-1.01001040110504e+02,-3.53706401228153e-01
3.54813389233574e+01	-1.01001040110504e+02,-3.61945281701614e-01
3.63078054770100e+01	-1.01001040110504e+02,-3.70376070354345e-01
3.71535229097171e+01	-1.01001040110504e+02,-3.79003237302085e-01
3.80189396320559e+01	-1.01001040110504e+02,-3.87831356782943e-01
3.89045144994279e+01	-1.01001040110504e+02,-3.96865109582722e-01
3.98107170553495e+01	-1.01001040110504e+02,-4.06109285516733e-01
4.07380277804111e+01	-1.01001040110504e+02,-4.15568785969417e-01
4.16869383470333e+01	-1.01001040110504e+02,-4.25248626493125e-01
4.26579518801591e+01	-1.01001040110504e+02,-4.35153939467431e-01
4.36515832240164e+01	-1.01001040110504e+02,-4.45289976820385e-01
4.46683592150961e+01	-1.01001040110504e+02,-4.55662112813160e-01
4.57088189614873e+01	-1.01001040110504e+02,-4.66275846889549e-01
4.67735141287196e+01	-1.01001040110504e+02,-4.77136806591849e-01
4.78630092322636e+01	-1.01001040110504e+02,-4.88250750544657e-01
4.89778819368444e+01	-1.01001040110505e+02,-4.99623571508166e-01
5.01187233627270e+01	-1.01001040110504e+02,-5.11261299502588e-01
5.12861383991362e+01	-1.01001040110504e+02,-5.23170105005350e-01
5.24807460249770e+01	-1.01001040110504e+02,-5.35356302222761e-01
5.37031796370250e+01	-1.01001040110504e+02,-5.47826352437889e-01
5.49540873857622e+01	-1.01001040110504e+02,-5.60586867436419e-01
5.62341325190346e+01	-1.01001040110505e+02,-5.73644613012308e-01
5.75439937337154e+01	-1.01001040110504e+02,-5.87006512555099e-01
5.88843655355586e+01	-1.01001040110504e+02,-6.00679650720798e-01
6.02559586074355e+01	-1.01001040110504e+02,-6.14671277188243e-01
6.16595001861479e+01	-1.01001040110504e+02,-6.28988810502990e-01
6.30957344480190e+01	-1.01001040110504e+02,-6.43639842010717e-01
6.45654229034652e+01	-1.01001040110504e+02,-6.58632139882258e-01
6.60693448007593e+01	-1.01001040110504e+02,-6.73973653232392e-01
6.76082975391978e+01	-1.01001040110504e+02,-6.89672516334566e-01
6.91830970918933e+01	-1.01001040110505e+02,-7.05737052933796e-01
7.07945784384134e+01	-1.01001040110504e+02,-7.22175780660025e-01
7.24435960074986e+01	-1.01001040110504e+02,-7.38997415544286e-01
7.41310241300914e+01	-1.01001040110504e+02,-7.56210876640057e-01
7.58577575029180e+01	-1.01001040110504e+02,-7.73825290752256e-01
7.76247116628688e+01	-1.01001040110504e+02,-7.91849997276400e-01
7.94328234724277e+01	-1.01001040110504e+02,-8.10294553150475e-01
8.12830516164095e+01	-1.01001040110504e+02,-8.29168737922146e-01
8.31763771102667e+01	-1.01001040110504e+02,-8.48482558934009e-01
8.51138038202372e+01	-1.01001040110504e+02,-8.68246256629614e-01
8.70963589956076e+01	-1.01001040110504e+02,-8.88470309983080e-01
8.91250938133741e+01	-1.01001040110504e+02,-9.09165442055195e-01
9.12010839355905e+01	-1.01001040110504e+02,-9.30342625678916e-01
9.33254300796986e+01	-1.01001040110504e+02,-9.52013089277311e-01
9.54992586021431e+01	-1.01001040110504e+02,-9.74188322817025e-01
9.77237220955805e+01	-1.01001040110504e+02,-9.96880083900402e-01
9.99999999999995e+01	-1.01001040110504e+02,-1.02010040399953e+00
1.02329299228075e+02	-1.01001040110504e+02,-1.04386159483549e+00
1.04712854805089e+02	-1.01001040110504e+02,-1.06817625490617e+00
1.07151930523760e+02	-1.01001040110505e+02,-1.09305727616618e+00
1.09647819614318e+02	-1.01001040110504e+02,-1.11851785086234e+00
1.12201845430196e+02	-1.01001040110504e+02,-1.14457147852836e+00
1.14815362149688e+02	-1.01001040110504e+02,-1.17123197314250e+00
1.17489755493952e+02	-1.01001040110504e+02,-1.19851347045188e+00
1.20226443461741e+02	-1.01001040110504e+02,-1.22643043546749e+00
1.23026877081237e+02	-1.01001040110504e+02,-1.25499767013372e+00
1.25892541179416e+02	-1.01001040110505e+02,-1.28423032117651e+00
1.28824955169313e+02	-1.01001040110504e+02,-1.31414388813438e+00
1.31825673855640e+02	-1.01001040110504e+02,-1.34475423157650e+00
1.34896288259165e+02	-1.01001040110504e+02,-1.37607758151212e+00
1.38038426460288e+02	-1.01001040110504e+02,-1.40813054599600e+00
1.41253754462275e+02	-1.01001040110504e+02,-1.44093011993418e+00
1.44543977074592e+02	-1.01001040110505e+02,-1.47449369409491e+00
1.47910838816820e+02	-1.01001040110504e+02,-1.50883906432948e+00
1.51356124843620e+02	-1.01001040110504e+02,-1.54398444100781e+00
1.54881661891247e+02	-1.01001040110504e+02,-1.57994845867381e+00
1.58489319246110e+02	-1.01001040110505e+02,-1.61675018592569e+00
1.62181009735892e+02	-1.01001040110505e+02,-1.65440913552636e+00
1.65958690743755e+02	-1.01001040110505e+02,-1.69294527474939e+00
1.69824365246173e+02	-1.01001040110505e+02,-1.73237903596587e+00
1.73780082874936e+02	-1.01001040110504e+02,-1.77273132747796e+00
1.77827941003891e+02	-1.01001040110504e+02,-1.81402354460475e+00
1.81970085860997e+02	-1.01001040110504e+02,-1.85627758102634e+00
1.86208713666286e+02	-1.01001040110504e+02,-1.89951584039212e+00
1.90546071796323e+02	-1.01001040110504e+02,-1.94376124819954e+00
1.94984459975803e+02	-1.01001040110505e+02,-1.98903726394949e+00
1.99526231496887e+02	-1.01001040110505e+02,-2.03536789358479e+00
2.04173794466952e+02	-1.01001040110504e+02,-2.08277770221856e+00
2.08929613085403e+02	-1.01001040110505e+02,-2.13129182715886e+00
2.13796208950222e+02	-1.01001040110505e+02,-2.18093599123691e+00
2.18776162394954e+02	-1.01001040110504e+02,-2.23173651644561e+00
2.23872113856832e+02	-1.01001040110505e+02,-2.28372033789585e+00
2.29086765276776e+02	-1.01001040110504e+02,-2.33691501809786e+00
2.34422881531991e+02	-1.01001040110504e+02,-2.39134876157519e+00
2.39883291901947e+02	-1.01001040110504e+02,-2.44705042981915e+00
2.45470891568501e+02	-1.01001040110505e+02,-2.50404955659155e+00
2.51188643150956e+02	-1.01001040110505e+02,-2.56237636358386e+00
2.57039578276885e+02	-1.01001040110505e+02,-2.62206177644121e+00
2.63026799189536e+02	-1.01001040110505e+02,-2.68313744115951e+00
2.69153480392690e+02	-1.01001040110505e+02,-2.74563574086464e+00
2.75422870333815e+02	-1.01001040110505e+02,-2.80958981298237e+00
2.81838293126443e+02	-1.01001040110505e+02,-2.87503356680825e+00
2.88403150312659e+02	-1.01001040110505e+02,-2.94200170148682e+00
2.95120922666637e+02	-1.01001040110505e+02,-3.01052972440952e+00
3.01995172040200e+02	-1.01001040110505e+02,-3.08065397004117e+00
3.09029543251357e+02	-1.01001040110505e+02,-3.15241161918502e+00
3.16227766016836e+02	-1.01001040110505e+02,-3.22584071869645e+00
3.23593656929626e+02	-1.01001040110505e+02,-3.30098020165599e+00
3.31131121482589e+02	-1.01001040110505e+02,-3.37786990801209e+00
3.38844156139200e+02	-1.01001040110505e+02,-3.45655060570480e+00
3.46736850452529e+02	-1.01001040110505e+02,-3.53706401228152e+00
3.54813389233573e+02	-1.01001040110505e+02,-3.61945281701613e+00
3.63078054770099e+02	-1.01001040110505e+02,-3.70376070354344e+00
3.71535229097170e+02	-1.01001040110505e+02,-3.79003237302084e+00
3.80189396320558e+02	-1.01001040110505e+02,-3.87831356782942e+00
3.89045144994278e+02	-1.01001040110505e+02,-3.96865109582721e+00
3.98107170553494e+02	-1.01001040110505e+02,-4.06109285516732e+00
4.07380277804110e+02	-1.01001040110505e+02,-4.15568785969416e+00
4.16869383470332e+02	-1.01001040110505e+02,-4.25248626493124e+00
4.26579518801589e+02	-1.01001040110505e+02,-4.35153939467430e+00
4.36515832240163e+02	-1.01001040110505e+02,-4.45289976820384e+00
4.46683592150960e+02	-1.01001040110505e+02,-4.55662112813159e+00
4.57088189614872e+02	-1.01001040110505e+02,-4.66275846889548e+00
4.67735141287195e+02	-1.01001040110505e+02,-4.77136806591848e+00
4.78630092322635e+02	-1.01001040110505e+02,-4.88250750544656e+00
4.89778819368442e+02	-1.01001040110505e+02,-4.99623571508165e+00
5.01187233627268e+02	-1.01001040110505e+02,-5.11261299502587e+00
5.12861383991361e+02	-1.01001040110505e+02,-5.23170105005349e+00
5.24807460249769e+02	-1.01001040110505e+02,-5.35356302222760e+00
5.37031796370249e+02	-1.01001040110505e+02,-5.47826352437888e+00
5.49540873857620e+02	-1.01001040110505e+02,-5.60586867436417e+00
5.62341325190345e+02	-1.01001040110505e+02,-5.73644613012306e+00
5.75439937337152e+02	-1.01001040110505e+02,-5.87006512555098e+00
5.88843655355584e+02	-1.01001040110505e+02,-6.00679650720796e+00
6.02559586074353e+02	-1.01001040110505e+02,-6.14671277188242e+00
6.16595001861477e+02	-1.01001040110505e+02,-6.28988810502989e+00
6.30957344480188e+02	-1.01001040110505e+02,-6.43639842010715e+00
6.45654229034650e+02	-1.01001040110505e+02,-6.58632139882257e+00
6.60693448007591e+02	-1.01001040110505e+02,-6.73973653232391e+00
6.76082975391976e+02	-1.01001040110505e+02,-6.89672516334564e+00
6.91830970918931e+02	-1.01001040110505e+02,-7.05737052933794e+00
7.07945784384132e+02	-1.01001040110505e+02,-7.22175780660022e+00
7.24435960074984e+02	-1.01001040110505e+02,-7.38997415544284e+00
7.41310241300911e+02	-1.01001040110505e+02,-7.56210876640054e+00
7.58577575029177e+02	-1.01001040110505e+02,-7.73825290752253e+00
7.76247116628685e+02	-1.01001040110505e+02,-7.91849997276398e+00
7.94328234724275e+02	-1.01001040110505e+02,-8.10294553150472e+00
8.12830516164092e+02	-1.01001040110505e+02,-8.29168737922143e+00
8.31763771102664e+02	-1.01001040110505e+02,-8.48482558934006e+00
8.51138038202369e+02	-1.01001040110505e+02,-8.68246256629611e+00
8.70963589956073e+02	-1.01001040110505e+02,-8.88470309983078e+00
8.91250938133738e+02	-1.01001040110505e+02,-9.09165442055193e+00
9.12010839355902e+02	-1.01001040110505e+02,-9.30342625678913e+00
9.33254300796983e+02	-1.01001040110505e+02,-9.52013089277308e+00
9.54992586021428e+02	-1.01001040110505e+02,-9.74188322817021e+00
9.77237220955802e+02	-1.01001040110505e+02,-9.96880083900399e+00
9.99999999999991e+02	-1.01001040110505e+02,-1.02010040399953e+01
1.02329299228075e+03	-1.01001040110505e+02,-1.04386159483548e+01
