Freq.	V(vout)
1.00000000000000e+00	(4.00086024498793e+01dB,1.79994269335503e+02°)
1.02329299228075e+00	(4.00086024545131e+01dB,1.79994135843667e+02°)
1.04712854805090e+00	(4.00086024463129e+01dB,1.79993999253560e+02°)
1.07151930523761e+00	(4.00086024433859e+01dB,1.79993859477768e+02°)
1.09647819614318e+00	(4.00086024431508e+01dB,1.79993716448056e+02°)
1.12201845430196e+00	(4.00086024378543e+01dB,1.79993570087654e+02°)
1.14815362149688e+00	(4.00086024326740e+01dB,1.79993420311273e+02°)
1.17489755493953e+00	(4.00086024327871e+01dB,1.79993267054948e+02°)
1.20226443461741e+00	(4.00086024330274e+01dB,1.79993110226984e+02°)
1.23026877081238e+00	(4.00086024282289e+01dB,1.79992949744218e+02°)
1.25892541179417e+00	(4.00086024287421e+01dB,1.79992785514968e+02°)
1.28824955169313e+00	(4.00086024268152e+01dB,1.79992617464596e+02°)
1.31825673855641e+00	(4.00086024250412e+01dB,1.79992445503547e+02°)
1.34896288259165e+00	(4.00086024182552e+01dB,1.79992269544391e+02°)
1.38038426460288e+00	(4.00086024064649e+01dB,1.79992089476247e+02°)
1.41253754462275e+00	(4.00086024077804e+01dB,1.79991905218103e+02°)
1.44543977074593e+00	(4.00086024066939e+01dB,1.79991716656932e+02°)
1.47910838816821e+00	(4.00086023980413e+01dB,1.79991523728761e+02°)
1.51356124843621e+00	(4.00086023999351e+01dB,1.79991326280078e+02°)
1.54881661891248e+00	(4.00086023968677e+01dB,1.79991124238370e+02°)
1.58489319246111e+00	(4.00086023888490e+01dB,1.79990917505549e+02°)
1.62181009735893e+00	(4.00086023758900e+01dB,1.79990705945148e+02°)
1.65958690743756e+00	(4.00086023761036e+01dB,1.79990489459098e+02°)
1.69824365246174e+00	(4.00086023688127e+01dB,1.79990267932232e+02°)
1.73780082874937e+00	(4.00086023669600e+01dB,1.79990041236625e+02°)
1.77827941003892e+00	(4.00086023550411e+01dB,1.79989809274172e+02°)
1.81970085860998e+00	(4.00086023589301e+01dB,1.79989571895642e+02°)
1.86208713666287e+00	(4.00086023476078e+01dB,1.79989328998645e+02°)
1.90546071796325e+00	(4.00086023366053e+01dB,1.79989080433938e+02°)
1.94984459975804e+00	(4.00086023362815e+01dB,1.79988826082123e+02°)
1.99526231496888e+00	(4.00086023207914e+01dB,1.79988565819494e+02°)
2.04173794466953e+00	(4.00086023160129e+01dB,1.79988299475498e+02°)
2.08929613085404e+00	(4.00086023116184e+01dB,1.79988026930711e+02°)
2.13796208950223e+00	(4.00086022921096e+01dB,1.79987748052908e+02°)
2.18776162394955e+00	(4.00086022911248e+01dB,1.79987462658757e+02°)
2.23872113856834e+00	(4.00086022828227e+01dB,1.79987170628810e+02°)
2.29086765276777e+00	(4.00086022672245e+01dB,1.79986871792481e+02°)
2.34422881531992e+00	(4.00086022572816e+01dB,1.79986566004793e+02°)
2.39883291901949e+00	(4.00086022400872e+01dB,1.79986253090874e+02°)
2.45470891568503e+00	(4.00086022311813e+01dB,1.79985932884427e+02°)
2.51188643150958e+00	(4.00086022280031e+01dB,1.79985605210600e+02°)
2.57039578276886e+00	(4.00086022124759e+01dB,1.79985269911570e+02°)
2.63026799189538e+00	(4.00086022001435e+01dB,1.79984926803983e+02°)
2.69153480392691e+00	(4.00086021781046e+01dB,1.79984575704436e+02°)
2.75422870333816e+00	(4.00086021644911e+01dB,1.79984216433847e+02°)
2.81838293126445e+00	(4.00086021464046e+01dB,1.79983848791754e+02°)
2.88403150312660e+00	(4.00086021368085e+01dB,1.79983472582008e+02°)
2.95120922666638e+00	(4.00086021150493e+01dB,1.79983087595601e+02°)
3.01995172040201e+00	(4.00086021044364e+01dB,1.79982693653464e+02°)
3.09029543251359e+00	(4.00086020843195e+01dB,1.79982290542324e+02°)
3.16227766016837e+00	(4.00086020650835e+01dB,1.79981878023381e+02°)
3.23593656929628e+00	(4.00086020467684e+01dB,1.79981455908991e+02°)
3.31131121482591e+00	(4.00086020139014e+01dB,1.79981023977357e+02°)
3.38844156139202e+00	(4.00086019975611e+01dB,1.79980581981200e+02°)
3.46736850452531e+00	(4.00086019745221e+01dB,1.79980129664588e+02°)
3.54813389233575e+00	(4.00086019474189e+01dB,1.79979666814295e+02°)
3.63078054770101e+00	(4.00086019214745e+01dB,1.79979193208570e+02°)
3.71535229097172e+00	(4.00086018967465e+01dB,1.79978708540361e+02°)
3.80189396320560e+00	(4.00086018655309e+01dB,1.79978212613473e+02°)
3.89045144994280e+00	(4.00086018356481e+01dB,1.79977705120871e+02°)
3.98107170553496e+00	(4.00086018045741e+01dB,1.79977185806671e+02°)
4.07380277804112e+00	(4.00086017723745e+01dB,1.79976654397933e+02°)
4.16869383470335e+00	(4.00086017417052e+01dB,1.79976110596141e+02°)
4.26579518801592e+00	(4.00086017100508e+01dB,1.79975554136879e+02°)
4.36515832240165e+00	(4.00086016645556e+01dB,1.79974984738643e+02°)
4.46683592150962e+00	(4.00086016285762e+01dB,1.79974402051799e+02°)
4.57088189614874e+00	(4.00086015840913e+01dB,1.79973805794826e+02°)
4.67735141287197e+00	(4.00086015518762e+01dB,1.79973195643673e+02°)
4.78630092322637e+00	(4.00086015009877e+01dB,1.79972571299722e+02°)
4.89778819368445e+00	(4.00086014547975e+01dB,1.79971932396281e+02°)
5.01187233627271e+00	(4.00086014056447e+01dB,1.79971278626274e+02°)
5.12861383991364e+00	(4.00086013562211e+01dB,1.79970609622948e+02°)
5.24807460249771e+00	(4.00086012911192e+01dB,1.79969925036548e+02°)
5.37031796370252e+00	(4.00086012440725e+01dB,1.79969224491900e+02°)
5.49540873857623e+00	(4.00086011841660e+01dB,1.79968507647726e+02°)
5.62341325190348e+00	(4.00086011244588e+01dB,1.79967774077605e+02°)
5.75439937337156e+00	(4.00086010599068e+01dB,1.79967023431815e+02°)
5.88843655355588e+00	(4.00086009932321e+01dB,1.79966255326549e+02°)
6.02559586074356e+00	(4.00086009168243e+01dB,1.79965469309721e+02°)
6.16595001861481e+00	(4.00086008489340e+01dB,1.79964664989056e+02°)
6.30957344480192e+00	(4.00086007690315e+01dB,1.79963841929474e+02°)
6.45654229034654e+00	(4.00086006850382e+01dB,1.79962999713071e+02°)
6.60693448007594e+00	(4.00086006023038e+01dB,1.79962137845168e+02°)
6.76082975391980e+00	(4.00086005080720e+01dB,1.79961255941889e+02°)
6.91830970918935e+00	(4.00086004128825e+01dB,1.79960353474462e+02°)
7.07945784384136e+00	(4.00086003169339e+01dB,1.79959429965245e+02°)
7.24435960074988e+00	(4.00086002152535e+01dB,1.79958485004807e+02°)
7.41310241300916e+00	(4.00086001106571e+01dB,1.79957517979050e+02°)
7.58577575029182e+00	(4.00085999981941e+01dB,1.79956528435893e+02°)
7.76247116628690e+00	(4.00085998806886e+01dB,1.79955515855059e+02°)
7.94328234724279e+00	(4.00085997558055e+01dB,1.79954479690657e+02°)
8.12830516164097e+00	(4.00085996289822e+01dB,1.79953419362720e+02°)
8.31763771102669e+00	(4.00085994927255e+01dB,1.79952334385035e+02°)
8.51138038202374e+00	(4.00085993473300e+01dB,1.79951224117899e+02°)
8.70963589956078e+00	(4.00085992008535e+01dB,1.79950087981360e+02°)
8.91250938133743e+00	(4.00085990458505e+01dB,1.79948925386851e+02°)
9.12010839355907e+00	(4.00085988826526e+01dB,1.79947735703198e+02°)
9.33254300796988e+00	(4.00085987116024e+01dB,1.79946518316289e+02°)
9.54992586021433e+00	(4.00085985330653e+01dB,1.79945272552304e+02°)
9.77237220955808e+00	(4.00085983487071e+01dB,1.79943997788607e+02°)
9.99999999999997e+00	(4.00085981537552e+01dB,1.79942693325760e+02°)
1.02329299228075e+01	(4.00085979460330e+01dB,1.79941358506981e+02°)
1.04712854805090e+01	(4.00085977337421e+01dB,1.79939992564681e+02°)
1.07151930523760e+01	(4.00085975121629e+01dB,1.79938594790886e+02°)
1.09647819614318e+01	(4.00085972765928e+01dB,1.79937164486150e+02°)
1.12201845430196e+01	(4.00085970275331e+01dB,1.79935700874299e+02°)
1.14815362149688e+01	(4.00085967693881e+01dB,1.79934203162127e+02°)
1.17489755493953e+01	(4.00085965001182e+01dB,1.79932670556382e+02°)
1.20226443461741e+01	(4.00085962190043e+01dB,1.79931102238233e+02°)
1.23026877081238e+01	(4.00085959227582e+01dB,1.79929497422942e+02°)
1.25892541179416e+01	(4.00085956120191e+01dB,1.79927855197864e+02°)
1.28824955169313e+01	(4.00085952900256e+01dB,1.79926174718607e+02°)
1.31825673855640e+01	(4.00085949497021e+01dB,1.79924455123634e+02°)
1.34896288259165e+01	(4.00085945930690e+01dB,1.79922695466190e+02°)
1.38038426460288e+01	(4.00085942208807e+01dB,1.79920894816565e+02°)
1.41253754462275e+01	(4.00085938300520e+01dB,1.79919052202368e+02°)
1.44543977074592e+01	(4.00085934239868e+01dB,1.79917166693914e+02°)
1.47910838816820e+01	(4.00085929945052e+01dB,1.79915237267581e+02°)
1.51356124843620e+01	(4.00085925463978e+01dB,1.79913262882812e+02°)
1.54881661891248e+01	(4.00085920780215e+01dB,1.79911242524573e+02°)
1.58489319246111e+01	(4.00085915877920e+01dB,1.79909175092537e+02°)
1.62181009735892e+01	(4.00085910728689e+01dB,1.79907059503415e+02°)
1.65958690743755e+01	(4.00085905349824e+01dB,1.79904894665438e+02°)
1.69824365246174e+01	(4.00085899720578e+01dB,1.79902679367382e+02°)
1.73780082874937e+01	(4.00085893781609e+01dB,1.79900412508855e+02°)
1.77827941003892e+01	(4.00085887610272e+01dB,1.79898092819032e+02°)
1.81970085860998e+01	(4.00085881154938e+01dB,1.79895719103703e+02°)
1.86208713666286e+01	(4.00085874364748e+01dB,1.79893290083356e+02°)
1.90546071796324e+01	(4.00085867286337e+01dB,1.79890804495652e+02°)
1.94984459975804e+01	(4.00085859837772e+01dB,1.79888261026915e+02°)
1.99526231496887e+01	(4.00085852060832e+01dB,1.79885658278323e+02°)
2.04173794466952e+01	(4.00085843920135e+01dB,1.79882994927717e+02°)
2.08929613085403e+01	(4.00085835381339e+01dB,1.79880269533522e+02°)
2.13796208950222e+01	(4.00085826443115e+01dB,1.79877480662729e+02°)
2.18776162394954e+01	(4.00085817079154e+01dB,1.79874626839642e+02°)
2.23872113856833e+01	(4.00085807289956e+01dB,1.79871706537422e+02°)
2.29086765276776e+01	(4.00085797044544e+01dB,1.79868718220646e+02°)
2.34422881531991e+01	(4.00085786293694e+01dB,1.79865660268563e+02°)
2.39883291901948e+01	(4.00085775040652e+01dB,1.79862531103136e+02°)
2.45470891568502e+01	(4.00085763270539e+01dB,1.79859329052473e+02°)
2.51188643150957e+01	(4.00085750937194e+01dB,1.79856052427561e+02°)
2.57039578276885e+01	(4.00085738021573e+01dB,1.79852699479716e+02°)
2.63026799189537e+01	(4.00085724505876e+01dB,1.79849268417597e+02°)
2.69153480392690e+01	(4.00085710337871e+01dB,1.79845757449793e+02°)
2.75422870333815e+01	(4.00085695518572e+01dB,1.79842164699677e+02°)
2.81838293126444e+01	(4.00085679982451e+01dB,1.79838488264904e+02°)
2.88403150312659e+01	(4.00085663733416e+01dB,1.79834726183533e+02°)
2.95120922666637e+01	(4.00085646708880e+01dB,1.79830876484956e+02°)
3.01995172040200e+01	(4.00085628873914e+01dB,1.79826937113302e+02°)
3.09029543251358e+01	(4.00085610221094e+01dB,1.79822905978623e+02°)
3.16227766016837e+01	(4.00085590670317e+01dB,1.79818780965215e+02°)
3.23593656929627e+01	(4.00085570201786e+01dB,1.79814559855123e+02°)
3.31131121482590e+01	(4.00085548774783e+01dB,1.79810240430327e+02°)
3.38844156139201e+01	(4.00085526331451e+01dB,1.79805820378921e+02°)
3.46736850452530e+01	(4.00085502828644e+01dB,1.79801297406065e+02°)
3.54813389233574e+01	(4.00085478222738e+01dB,1.79796669063359e+02°)
3.63078054770100e+01	(4.00085452452614e+01dB,1.79791932932187e+02°)
3.71535229097171e+01	(4.00085425472950e+01dB,1.79787086461733e+02°)
3.80189396320559e+01	(4.00085397222832e+01dB,1.79782127113901e+02°)
3.89045144994279e+01	(4.00085367641019e+01dB,1.79777052252470e+02°)
3.98107170553495e+01	(4.00085336660956e+01dB,1.79771859189989e+02°)
4.07380277804111e+01	(4.00085304227214e+01dB,1.79766545162229e+02°)
4.16869383470333e+01	(4.00085270256569e+01dB,1.79761107370722e+02°)
4.26579518801591e+01	(4.00085234690304e+01dB,1.79755542910401e+02°)
4.36515832240164e+01	(4.00085197450267e+01dB,1.79749848841975e+02°)
4.46683592150961e+01	(4.00085158447276e+01dB,1.79744022162096e+02°)
4.57088189614873e+01	(4.00085117610779e+01dB,1.79738059743728e+02°)
4.67735141287196e+01	(4.00085074850981e+01dB,1.79731958463985e+02°)
4.78630092322636e+01	(4.00085030074517e+01dB,1.79725715063423e+02°)
4.89778819368444e+01	(4.00084983185513e+01dB,1.79719326252668e+02°)
5.01187233627270e+01	(4.00084934091230e+01dB,1.79712788627124e+02°)
5.12861383991362e+01	(4.00084882680819e+01dB,1.79706098726614e+02°)
5.24807460249770e+01	(4.00084828846686e+01dB,1.79699253014111e+02°)
5.37031796370250e+01	(4.00084772478450e+01dB,1.79692247850129e+02°)
5.49540873857622e+01	(4.00084713450009e+01dB,1.79685079522520e+02°)
5.62341325190346e+01	(4.00084651642463e+01dB,1.79677744238022e+02°)
5.75439937337154e+01	(4.00084586921992e+01dB,1.79670238092310e+02°)
5.88843655355586e+01	(4.00084519150957e+01dB,1.79662557125476e+02°)
6.02559586074355e+01	(4.00084448185406e+01dB,1.79654697266567e+02°)
6.16595001861479e+01	(4.00084373877001e+01dB,1.79646654333577e+02°)
6.30957344480190e+01	(4.00084296065687e+01dB,1.79638424071796e+02°)
6.45654229034652e+01	(4.00084214585970e+01dB,1.79630002119699e+02°)
6.60693448007593e+01	(4.00084129267168e+01dB,1.79621384017468e+02°)
6.76082975391978e+01	(4.00084039928484e+01dB,1.79612565168572e+02°)
6.91830970918933e+01	(4.00083946379903e+01dB,1.79603540946380e+02°)
7.07945784384134e+01	(4.00083848423404e+01dB,1.79594306532078e+02°)
7.24435960074986e+01	(4.00083745848010e+01dB,1.79584857042584e+02°)
7.41310241300914e+01	(4.00083638440509e+01dB,1.79575187470865e+02°)
7.58577575029180e+01	(4.00083525971683e+01dB,1.79565292692254e+02°)
7.76247116628688e+01	(4.00083408201301e+01dB,1.79555167455918e+02°)
7.94328234724277e+01	(4.00083284881150e+01dB,1.79544806408314e+02°)
8.12830516164095e+01	(4.00083155749991e+01dB,1.79534204048351e+02°)
8.31763771102667e+01	(4.00083020533735e+01dB,1.79523354757222e+02°)
8.51138038202372e+01	(4.00082878943971e+01dB,1.79512252796238e+02°)
8.70963589956076e+01	(4.00082730683017e+01dB,1.79500892272702e+02°)
8.91250938133741e+01	(4.00082575435646e+01dB,1.79489267169690e+02°)
9.12010839355905e+01	(4.00082412871233e+01dB,1.79477371322567e+02°)
9.33254300796986e+01	(4.00082242646161e+01dB,1.79465198438158e+02°)
9.54992586021431e+01	(4.00082064399350e+01dB,1.79452742058434e+02°)
9.77237220955805e+01	(4.00081877753054e+01dB,1.79439995583925e+02°)
9.99999999999995e+01	(4.00081682311207e+01dB,1.79426952271538e+02°)
1.02329299228075e+02	(4.00081477660034e+01dB,1.79413605191857e+02°)
1.04712854805089e+02	(4.00081263364578e+01dB,1.79399947286652e+02°)
1.07151930523760e+02	(4.00081038970834e+01dB,1.79385971324050e+02°)
1.09647819614318e+02	(4.00080804002356e+01dB,1.79371669889922e+02°)
1.12201845430196e+02	(4.00080557962337e+01dB,1.79357035417693e+02°)
1.14815362149688e+02	(4.00080300327743e+01dB,1.79342060149843e+02°)
1.17489755493952e+02	(4.00080030553304e+01dB,1.79326736154922e+02°)
1.20226443461741e+02	(4.00079748066269e+01dB,1.79311055318906e+02°)
1.23026877081237e+02	(4.00079452268134e+01dB,1.79295009334459e+02°)
1.25892541179416e+02	(4.00079142531713e+01dB,1.79278589705085e+02°)
1.28824955169313e+02	(4.00078818199377e+01dB,1.79261787742889e+02°)
1.31825673855640e+02	(4.00078478585824e+01dB,1.79244594534370e+02°)
1.34896288259165e+02	(4.00078122968504e+01dB,1.79227000993547e+02°)
1.38038426460288e+02	(4.00077750594624e+01dB,1.79208997793653e+02°)
1.41253754462275e+02	(4.00077360675320e+01dB,1.79190575405348e+02°)
1.44543977074592e+02	(4.00076952382754e+01dB,1.79171724081626e+02°)
1.47910838816820e+02	(4.00076524852622e+01dB,1.79152433836365e+02°)
1.51356124843620e+02	(4.00076077177921e+01dB,1.79132694465436e+02°)
1.54881661891247e+02	(4.00075608409886e+01dB,1.79112495516692e+02°)
1.58489319246110e+02	(4.00075117554602e+01dB,1.79091826303610e+02°)
1.62181009735892e+02	(4.00074603572639e+01dB,1.79070675883771e+02°)
1.65958690743755e+02	(4.00074065373593e+01dB,1.79049033072463e+02°)
1.69824365246173e+02	(4.00073501817140e+01dB,1.79026886416870e+02°)
1.73780082874936e+02	(4.00072911709058e+01dB,1.79004224198997e+02°)
1.77827941003891e+02	(4.00072293798477e+01dB,1.78981034433250e+02°)
1.81970085860997e+02	(4.00071646776262e+01dB,1.78957304852283e+02°)
1.86208713666286e+02	(4.00070969271069e+01dB,1.78933022908793e+02°)
1.90546071796323e+02	(4.00070259847252e+01dB,1.78908175765585e+02°)
1.94984459975803e+02	(4.00069517002021e+01dB,1.78882750281338e+02°)
1.99526231496887e+02	(4.00068739160849e+01dB,1.78856733016592e+02°)
2.04173794466952e+02	(4.00067924676481e+01dB,1.78830110220546e+02°)
2.08929613085403e+02	(4.00067071822710e+01dB,1.78802867819909e+02°)
2.13796208950222e+02	(4.00066178793362e+01dB,1.78774991424840e+02°)
2.18776162394954e+02	(4.00065243696496e+01dB,1.78746466305999e+02°)
2.23872113856832e+02	(4.00064264551205e+01dB,1.78717277393999e+02°)
2.29086765276776e+02	(4.00063239283945e+01dB,1.78687409273480e+02°)
2.34422881531991e+02	(4.00062165723491e+01dB,1.78656846172851e+02°)
2.39883291901947e+02	(4.00061041595944e+01dB,1.78625571959332e+02°)
2.45470891568501e+02	(4.00059864521114e+01dB,1.78593570123298e+02°)
2.51188643150956e+02	(4.00058632006439e+01dB,1.78560823776404e+02°)
2.57039578276885e+02	(4.00057341442998e+01dB,1.78527315640090e+02°)
2.63026799189536e+02	(4.00055990098114e+01dB,1.78493028044643e+02°)
2.69153480392690e+02	(4.00054575111366e+01dB,1.78457942904785e+02°)
2.75422870333815e+02	(4.00053093487894e+01dB,1.78422041720751e+02°)
2.81838293126443e+02	(4.00051542091691e+01dB,1.78385305576104e+02°)
2.88403150312659e+02	(4.00049917639937e+01dB,1.78347715112014e+02°)
2.95120922666637e+02	(4.00048216695081e+01dB,1.78309250522761e+02°)
3.01995172040200e+02	(4.00046435658681e+01dB,1.78269891557588e+02°)
3.09029543251357e+02	(4.00044570762781e+01dB,1.78229617495734e+02°)
3.16227766016836e+02	(4.00042618063171e+01dB,1.78188407136888e+02°)
3.23593656929626e+02	(4.00040573429445e+01dB,1.78146238808538e+02°)
3.31131121482589e+02	(4.00038432538364e+01dB,1.78103090332202e+02°)
3.38844156139200e+02	(4.00036190863339e+01dB,1.78058939025198e+02°)
3.46736850452529e+02	(4.00033843665371e+01dB,1.78013761687916e+02°)
3.54813389233573e+02	(4.00031385983413e+01dB,1.77967534593076e+02°)
3.63078054770099e+02	(4.00028812623460e+01dB,1.77920233470003e+02°)
3.71535229097170e+02	(4.00026118148317e+01dB,1.77871833495166e+02°)
3.80189396320558e+02	(4.00023296865545e+01dB,1.77822309285714e+02°)
3.89045144994278e+02	(4.00020342816162e+01dB,1.77771634877900e+02°)
3.98107170553494e+02	(4.00017249762266e+01dB,1.77719783718628e+02°)
4.07380277804110e+02	(4.00014011173183e+01dB,1.77666728658906e+02°)
4.16869383470332e+02	(4.00010620212936e+01dB,1.77612441930012e+02°)
4.26579518801589e+02	(4.00007069725397e+01dB,1.77556895139129e+02°)
4.36515832240163e+02	(4.00003352219809e+01dB,1.77500059250859e+02°)
4.46683592150960e+02	(3.99999459854312e+01dB,1.77441904579075e+02°)
4.57088189614872e+02	(3.99995384421372e+01dB,1.77382400767350e+02°)
4.67735141287195e+02	(3.99991117328954e+01dB,1.77321516781747e+02°)
4.78630092322635e+02	(3.99986649583982e+01dB,1.77259220887879e+02°)
4.89778819368442e+02	(3.99981971773202e+01dB,1.77195480646221e+02°)
5.01187233627268e+02	(3.99977074044049e+01dB,1.77130262892627e+02°)
5.12861383991361e+02	(3.99971946083882e+01dB,1.77063533721602e+02°)
5.24807460249769e+02	(3.99966577099330e+01dB,1.76995258478227e+02°)
5.37031796370249e+02	(3.99960955793661e+01dB,1.76925401736734e+02°)
5.49540873857620e+02	(3.99955070343765e+01dB,1.76853927290339e+02°)
5.62341325190345e+02	(3.99948908375810e+01dB,1.76780798130348e+02°)
5.75439937337152e+02	(3.99942456940278e+01dB,1.76705976435369e+02°)
5.88843655355584e+02	(3.99935702484891e+01dB,1.76629423557720e+02°)
6.02559586074353e+02	(3.99928630827559e+01dB,1.76551099998761e+02°)
6.16595001861477e+02	(3.99921227127397e+01dB,1.76470965400594e+02°)
6.30957344480188e+02	(3.99913475853941e+01dB,1.76388978531345e+02°)
6.45654229034650e+02	(3.99905360756804e+01dB,1.76305097260863e+02°)
6.60693448007591e+02	(3.99896864831911e+01dB,1.76219278554712e+02°)
6.76082975391976e+02	(3.99887970287355e+01dB,1.76131478449336e+02°)
6.91830970918931e+02	(3.99878658507917e+01dB,1.76041652040674e+02°)
7.07945784384132e+02	(3.99868910017216e+01dB,1.75949753469533e+02°)
7.24435960074984e+02	(3.99858704439117e+01dB,1.75855735900494e+02°)
7.41310241300911e+02	(3.99848020456710e+01dB,1.75759551509747e+02°)
7.58577575029177e+02	(3.99836835770127e+01dB,1.75661151466831e+02°)
