Freq.	V(vout)
Step Information: Run=1  (Run: 1/128)
1.00000000000000e+00	(3.99999122222659e+01dB,1.79994269330121e+02°)
1.00000000000000e+02	(3.99994779982527e+01dB,1.79426952385475e+02°)
1.00000000000000e+07	(-2.01703427504907e+01dB,7.87472557630943e+01°)
Step Information: Run=2  (Run: 2/128)
1.00000000000000e+00	(3.99999122248545e+01dB,1.79994269332257e+02°)
1.00000000000000e+02	(3.99994779966008e+01dB,1.79426952381097e+02°)
1.00000000000000e+07	(-2.01703427438092e+01dB,7.87472559834738e+01°)
Step Information: Run=3  (Run: 3/128)
1.00000000000000e+00	(3.99999122222659e+01dB,1.79994269330121e+02°)
1.00000000000000e+02	(3.99994779982527e+01dB,1.79426952385475e+02°)
1.00000000000000e+07	(-2.01703427504907e+01dB,7.87472557630943e+01°)
Step Information: Run=4  (Run: 4/128)
1.00000000000000e+00	(3.99999122248545e+01dB,1.79994269332257e+02°)
1.00000000000000e+02	(3.99994779966008e+01dB,1.79426952381097e+02°)
1.00000000000000e+07	(-2.01703427438092e+01dB,7.87472559834738e+01°)
Step Information: Run=5  (Run: 5/128)
1.00000000000000e+00	(3.99999122222659e+01dB,1.79994269330121e+02°)
1.00000000000000e+02	(3.99994779982527e+01dB,1.79426952385475e+02°)
1.00000000000000e+07	(-2.01703427504907e+01dB,7.87472557630943e+01°)
Step Information: Run=6  (Run: 6/128)
1.00000000000000e+00	(3.99999122248545e+01dB,1.79994269332257e+02°)
1.00000000000000e+02	(3.99994779966008e+01dB,1.79426952381097e+02°)
1.00000000000000e+07	(-2.01703427438092e+01dB,7.87472559834738e+01°)
Step Information: Run=7  (Run: 7/128)
1.00000000000000e+00	(3.99999122222659e+01dB,1.79994269330121e+02°)
1.00000000000000e+02	(3.99994779982527e+01dB,1.79426952385475e+02°)
1.00000000000000e+07	(-2.01703427504907e+01dB,7.87472557630943e+01°)
Step Information: Run=8  (Run: 8/128)
1.00000000000000e+00	(3.99999122248545e+01dB,1.79994269332257e+02°)
1.00000000000000e+02	(3.99994779966008e+01dB,1.79426952381097e+02°)
1.00000000000000e+07	(-2.01703427438092e+01dB,7.87472559834738e+01°)
Step Information: Run=9  (Run: 9/128)
1.00000000000000e+00	(3.99999122222659e+01dB,1.79994269330121e+02°)
1.00000000000000e+02	(3.99994779982527e+01dB,1.79426952385475e+02°)
1.00000000000000e+07	(-2.01703427504907e+01dB,7.87472557630943e+01°)
Step Information: Run=10  (Run: 10/128)
1.00000000000000e+00	(3.99999122248545e+01dB,1.79994269332257e+02°)
1.00000000000000e+02	(3.99994779966008e+01dB,1.79426952381097e+02°)
1.00000000000000e+07	(-2.01703427438092e+01dB,7.87472559834738e+01°)
Step Information: Run=11  (Run: 11/128)
1.00000000000000e+00	(3.99999122222659e+01dB,1.79994269330121e+02°)
1.00000000000000e+02	(3.99994779982527e+01dB,1.79426952385475e+02°)
1.00000000000000e+07	(-2.01703427504907e+01dB,7.87472557630943e+01°)
Step Information: Run=12  (Run: 12/128)
1.00000000000000e+00	(3.99999122248545e+01dB,1.79994269332257e+02°)
1.00000000000000e+02	(3.99994779966008e+01dB,1.79426952381097e+02°)
1.00000000000000e+07	(-2.01703427438092e+01dB,7.87472559834738e+01°)
Step Information: Run=13  (Run: 13/128)
1.00000000000000e+00	(3.99999122222659e+01dB,1.79994269330121e+02°)
1.00000000000000e+02	(3.99994779982527e+01dB,1.79426952385475e+02°)
1.00000000000000e+07	(-2.01703427504907e+01dB,7.87472557630943e+01°)
Step Information: Run=14  (Run: 14/128)
1.00000000000000e+00	(3.99999122248545e+01dB,1.79994269332257e+02°)
1.00000000000000e+02	(3.99994779966008e+01dB,1.79426952381097e+02°)
1.00000000000000e+07	(-2.01703427438092e+01dB,7.87472559834738e+01°)
Step Information: Run=15  (Run: 15/128)
1.00000000000000e+00	(3.99999122222659e+01dB,1.79994269330121e+02°)
1.00000000000000e+02	(3.99994779982527e+01dB,1.79426952385475e+02°)
1.00000000000000e+07	(-2.01703427504907e+01dB,7.87472557630943e+01°)
Step Information: Run=16  (Run: 16/128)
1.00000000000000e+00	(3.99999122248545e+01dB,1.79994269332257e+02°)
1.00000000000000e+02	(3.99994779966008e+01dB,1.79426952381097e+02°)
1.00000000000000e+07	(-2.01703427438092e+01dB,7.87472559834738e+01°)
Step Information: Run=17  (Run: 17/128)
1.00000000000000e+00	(3.99999122222659e+01dB,1.79994269330121e+02°)
1.00000000000000e+02	(3.99994779982527e+01dB,1.79426952385475e+02°)
1.00000000000000e+07	(-2.01703427504907e+01dB,7.87472557630943e+01°)
Step Information: Run=18  (Run: 18/128)
1.00000000000000e+00	(3.99999122248545e+01dB,1.79994269332257e+02°)
1.00000000000000e+02	(3.99994779966008e+01dB,1.79426952381097e+02°)
1.00000000000000e+07	(-2.01703427438092e+01dB,7.87472559834738e+01°)
Step Information: Run=19  (Run: 19/128)
1.00000000000000e+00	(3.99999122222659e+01dB,1.79994269330121e+02°)
1.00000000000000e+02	(3.99994779982527e+01dB,1.79426952385475e+02°)
1.00000000000000e+07	(-2.01703427504907e+01dB,7.87472557630943e+01°)
Step Information: Run=20  (Run: 20/128)
1.00000000000000e+00	(3.99999122248545e+01dB,1.79994269332257e+02°)
1.00000000000000e+02	(3.99994779966008e+01dB,1.79426952381097e+02°)
1.00000000000000e+07	(-2.01703427438092e+01dB,7.87472559834738e+01°)
Step Information: Run=21  (Run: 21/128)
1.00000000000000e+00	(3.99999122222659e+01dB,1.79994269330121e+02°)
1.00000000000000e+02	(3.99994779982527e+01dB,1.79426952385475e+02°)
1.00000000000000e+07	(-2.01703427504907e+01dB,7.87472557630943e+01°)
Step Information: Run=22  (Run: 22/128)
1.00000000000000e+00	(3.99999122248545e+01dB,1.79994269332257e+02°)
1.00000000000000e+02	(3.99994779966008e+01dB,1.79426952381097e+02°)
1.00000000000000e+07	(-2.01703427438092e+01dB,7.87472559834738e+01°)
Step Information: Run=23  (Run: 23/128)
1.00000000000000e+00	(3.99999122222659e+01dB,1.79994269330121e+02°)
1.00000000000000e+02	(3.99994779982527e+01dB,1.79426952385475e+02°)
1.00000000000000e+07	(-2.01703427504907e+01dB,7.87472557630943e+01°)
Step Information: Run=24  (Run: 24/128)
1.00000000000000e+00	(3.99999122248545e+01dB,1.79994269332257e+02°)
1.00000000000000e+02	(3.99994779966008e+01dB,1.79426952381097e+02°)
1.00000000000000e+07	(-2.01703427438092e+01dB,7.87472559834738e+01°)
Step Information: Run=25  (Run: 25/128)
1.00000000000000e+00	(3.99999122222659e+01dB,1.79994269330121e+02°)
1.00000000000000e+02	(3.99994779982527e+01dB,1.79426952385475e+02°)
1.00000000000000e+07	(-2.01703427504907e+01dB,7.87472557630943e+01°)
Step Information: Run=26  (Run: 26/128)
1.00000000000000e+00	(3.99999122248545e+01dB,1.79994269332257e+02°)
1.00000000000000e+02	(3.99994779966008e+01dB,1.79426952381097e+02°)
1.00000000000000e+07	(-2.01703427438092e+01dB,7.87472559834738e+01°)
Step Information: Run=27  (Run: 27/128)
1.00000000000000e+00	(3.99999122222659e+01dB,1.79994269330121e+02°)
1.00000000000000e+02	(3.99994779982527e+01dB,1.79426952385475e+02°)
1.00000000000000e+07	(-2.01703427504907e+01dB,7.87472557630943e+01°)
Step Information: Run=28  (Run: 28/128)
1.00000000000000e+00	(3.99999122248545e+01dB,1.79994269332257e+02°)
1.00000000000000e+02	(3.99994779966008e+01dB,1.79426952381097e+02°)
1.00000000000000e+07	(-2.01703427438092e+01dB,7.87472559834738e+01°)
Step Information: Run=29  (Run: 29/128)
1.00000000000000e+00	(3.99999122222659e+01dB,1.79994269330121e+02°)
1.00000000000000e+02	(3.99994779982527e+01dB,1.79426952385475e+02°)
1.00000000000000e+07	(-2.01703427504907e+01dB,7.87472557630943e+01°)
Step Information: Run=30  (Run: 30/128)
1.00000000000000e+00	(3.99999122248545e+01dB,1.79994269332257e+02°)
1.00000000000000e+02	(3.99994779966008e+01dB,1.79426952381097e+02°)
1.00000000000000e+07	(-2.01703427438092e+01dB,7.87472559834738e+01°)
Step Information: Run=31  (Run: 31/128)
1.00000000000000e+00	(3.99999122222659e+01dB,1.79994269330121e+02°)
1.00000000000000e+02	(3.99994779982527e+01dB,1.79426952385475e+02°)
1.00000000000000e+07	(-2.01703427504907e+01dB,7.87472557630943e+01°)
Step Information: Run=32  (Run: 32/128)
1.00000000000000e+00	(3.99999122248545e+01dB,1.79994269332257e+02°)
1.00000000000000e+02	(3.99994779966008e+01dB,1.79426952381097e+02°)
1.00000000000000e+07	(-2.01703427438092e+01dB,7.87472559834738e+01°)
Step Information: Run=33  (Run: 33/128)
1.00000000000000e+00	(3.99999122222659e+01dB,1.79994269330121e+02°)
1.00000000000000e+02	(3.99994779982527e+01dB,1.79426952385475e+02°)
1.00000000000000e+07	(-2.01703427504907e+01dB,7.87472557630943e+01°)
Step Information: Run=34  (Run: 34/128)
1.00000000000000e+00	(3.99999122248545e+01dB,1.79994269332257e+02°)
1.00000000000000e+02	(3.99994779966008e+01dB,1.79426952381097e+02°)
1.00000000000000e+07	(-2.01703427438092e+01dB,7.87472559834738e+01°)
Step Information: Run=35  (Run: 35/128)
1.00000000000000e+00	(3.99999122222659e+01dB,1.79994269330121e+02°)
1.00000000000000e+02	(3.99994779982527e+01dB,1.79426952385475e+02°)
1.00000000000000e+07	(-2.01703427504907e+01dB,7.87472557630943e+01°)
Step Information: Run=36  (Run: 36/128)
1.00000000000000e+00	(3.99999122248545e+01dB,1.79994269332257e+02°)
1.00000000000000e+02	(3.99994779966008e+01dB,1.79426952381097e+02°)
1.00000000000000e+07	(-2.01703427438092e+01dB,7.87472559834738e+01°)
Step Information: Run=37  (Run: 37/128)
1.00000000000000e+00	(3.99999122222659e+01dB,1.79994269330121e+02°)
1.00000000000000e+02	(3.99994779982527e+01dB,1.79426952385475e+02°)
1.00000000000000e+07	(-2.01703427504907e+01dB,7.87472557630943e+01°)
Step Information: Run=38  (Run: 38/128)
1.00000000000000e+00	(3.99999122248545e+01dB,1.79994269332257e+02°)
1.00000000000000e+02	(3.99994779966008e+01dB,1.79426952381097e+02°)
1.00000000000000e+07	(-2.01703427438092e+01dB,7.87472559834738e+01°)
Step Information: Run=39  (Run: 39/128)
1.00000000000000e+00	(3.99999122222659e+01dB,1.79994269330121e+02°)
1.00000000000000e+02	(3.99994779982527e+01dB,1.79426952385475e+02°)
1.00000000000000e+07	(-2.01703427504907e+01dB,7.87472557630943e+01°)
Step Information: Run=40  (Run: 40/128)
1.00000000000000e+00	(3.99999122248545e+01dB,1.79994269332257e+02°)
1.00000000000000e+02	(3.99994779966008e+01dB,1.79426952381097e+02°)
1.00000000000000e+07	(-2.01703427438092e+01dB,7.87472559834738e+01°)
Step Information: Run=41  (Run: 41/128)
1.00000000000000e+00	(3.99999122222659e+01dB,1.79994269330121e+02°)
1.00000000000000e+02	(3.99994779982527e+01dB,1.79426952385475e+02°)
1.00000000000000e+07	(-2.01703427504907e+01dB,7.87472557630943e+01°)
Step Information: Run=42  (Run: 42/128)
1.00000000000000e+00	(3.99999122248545e+01dB,1.79994269332257e+02°)
1.00000000000000e+02	(3.99994779966008e+01dB,1.79426952381097e+02°)
1.00000000000000e+07	(-2.01703427438092e+01dB,7.87472559834738e+01°)
Step Information: Run=43  (Run: 43/128)
1.00000000000000e+00	(3.99999122222659e+01dB,1.79994269330121e+02°)
1.00000000000000e+02	(3.99994779982527e+01dB,1.79426952385475e+02°)
1.00000000000000e+07	(-2.01703427504907e+01dB,7.87472557630943e+01°)
Step Information: Run=44  (Run: 44/128)
1.00000000000000e+00	(3.99999122248545e+01dB,1.79994269332257e+02°)
1.00000000000000e+02	(3.99994779966008e+01dB,1.79426952381097e+02°)
1.00000000000000e+07	(-2.01703427438092e+01dB,7.87472559834738e+01°)
Step Information: Run=45  (Run: 45/128)
1.00000000000000e+00	(3.99999122222659e+01dB,1.79994269330121e+02°)
1.00000000000000e+02	(3.99994779982527e+01dB,1.79426952385475e+02°)
1.00000000000000e+07	(-2.01703427504907e+01dB,7.87472557630943e+01°)
Step Information: Run=46  (Run: 46/128)
1.00000000000000e+00	(3.99999122248545e+01dB,1.79994269332257e+02°)
1.00000000000000e+02	(3.99994779966008e+01dB,1.79426952381097e+02°)
1.00000000000000e+07	(-2.01703427438092e+01dB,7.87472559834738e+01°)
Step Information: Run=47  (Run: 47/128)
1.00000000000000e+00	(3.99999122222659e+01dB,1.79994269330121e+02°)
1.00000000000000e+02	(3.99994779982527e+01dB,1.79426952385475e+02°)
1.00000000000000e+07	(-2.01703427504907e+01dB,7.87472557630943e+01°)
Step Information: Run=48  (Run: 48/128)
1.00000000000000e+00	(3.99999122248545e+01dB,1.79994269332257e+02°)
1.00000000000000e+02	(3.99994779966008e+01dB,1.79426952381097e+02°)
1.00000000000000e+07	(-2.01703427438092e+01dB,7.87472559834738e+01°)
Step Information: Run=49  (Run: 49/128)
1.00000000000000e+00	(3.99999122222659e+01dB,1.79994269330121e+02°)
1.00000000000000e+02	(3.99994779982527e+01dB,1.79426952385475e+02°)
1.00000000000000e+07	(-2.01703427504907e+01dB,7.87472557630943e+01°)
Step Information: Run=50  (Run: 50/128)
1.00000000000000e+00	(3.99999122248545e+01dB,1.79994269332257e+02°)
1.00000000000000e+02	(3.99994779966008e+01dB,1.79426952381097e+02°)
1.00000000000000e+07	(-2.01703427438092e+01dB,7.87472559834738e+01°)
Step Information: Run=51  (Run: 51/128)
1.00000000000000e+00	(3.99999122222659e+01dB,1.79994269330121e+02°)
1.00000000000000e+02	(3.99994779982527e+01dB,1.79426952385475e+02°)
1.00000000000000e+07	(-2.01703427504907e+01dB,7.87472557630943e+01°)
Step Information: Run=52  (Run: 52/128)
1.00000000000000e+00	(3.99999122248545e+01dB,1.79994269332257e+02°)
1.00000000000000e+02	(3.99994779966008e+01dB,1.79426952381097e+02°)
1.00000000000000e+07	(-2.01703427438092e+01dB,7.87472559834738e+01°)
Step Information: Run=53  (Run: 53/128)
1.00000000000000e+00	(3.99999122222659e+01dB,1.79994269330121e+02°)
1.00000000000000e+02	(3.99994779982527e+01dB,1.79426952385475e+02°)
1.00000000000000e+07	(-2.01703427504907e+01dB,7.87472557630943e+01°)
Step Information: Run=54  (Run: 54/128)
1.00000000000000e+00	(3.99999122248545e+01dB,1.79994269332257e+02°)
1.00000000000000e+02	(3.99994779966008e+01dB,1.79426952381097e+02°)
1.00000000000000e+07	(-2.01703427438092e+01dB,7.87472559834738e+01°)
Step Information: Run=55  (Run: 55/128)
1.00000000000000e+00	(3.99999122222659e+01dB,1.79994269330121e+02°)
1.00000000000000e+02	(3.99994779982527e+01dB,1.79426952385475e+02°)
1.00000000000000e+07	(-2.01703427504907e+01dB,7.87472557630943e+01°)
Step Information: Run=56  (Run: 56/128)
1.00000000000000e+00	(3.99999122248545e+01dB,1.79994269332257e+02°)
1.00000000000000e+02	(3.99994779966008e+01dB,1.79426952381097e+02°)
1.00000000000000e+07	(-2.01703427438092e+01dB,7.87472559834738e+01°)
Step Information: Run=57  (Run: 57/128)
1.00000000000000e+00	(3.99999122222659e+01dB,1.79994269330121e+02°)
1.00000000000000e+02	(3.99994779982527e+01dB,1.79426952385475e+02°)
1.00000000000000e+07	(-2.01703427504907e+01dB,7.87472557630943e+01°)
Step Information: Run=58  (Run: 58/128)
1.00000000000000e+00	(3.99999122248545e+01dB,1.79994269332257e+02°)
1.00000000000000e+02	(3.99994779966008e+01dB,1.79426952381097e+02°)
1.00000000000000e+07	(-2.01703427438092e+01dB,7.87472559834738e+01°)
Step Information: Run=59  (Run: 59/128)
1.00000000000000e+00	(3.99999122222659e+01dB,1.79994269330121e+02°)
1.00000000000000e+02	(3.99994779982527e+01dB,1.79426952385475e+02°)
1.00000000000000e+07	(-2.01703427504907e+01dB,7.87472557630943e+01°)
Step Information: Run=60  (Run: 60/128)
1.00000000000000e+00	(3.99999122248545e+01dB,1.79994269332257e+02°)
1.00000000000000e+02	(3.99994779966008e+01dB,1.79426952381097e+02°)
1.00000000000000e+07	(-2.01703427438092e+01dB,7.87472559834738e+01°)
Step Information: Run=61  (Run: 61/128)
1.00000000000000e+00	(3.99999122222659e+01dB,1.79994269330121e+02°)
1.00000000000000e+02	(3.99994779982527e+01dB,1.79426952385475e+02°)
1.00000000000000e+07	(-2.01703427504907e+01dB,7.87472557630943e+01°)
Step Information: Run=62  (Run: 62/128)
1.00000000000000e+00	(3.99999122248545e+01dB,1.79994269332257e+02°)
1.00000000000000e+02	(3.99994779966008e+01dB,1.79426952381097e+02°)
1.00000000000000e+07	(-2.01703427438092e+01dB,7.87472559834738e+01°)
Step Information: Run=63  (Run: 63/128)
1.00000000000000e+00	(3.99999122222659e+01dB,1.79994269330121e+02°)
1.00000000000000e+02	(3.99994779982527e+01dB,1.79426952385475e+02°)
1.00000000000000e+07	(-2.01703427504907e+01dB,7.87472557630943e+01°)
Step Information: Run=64  (Run: 64/128)
1.00000000000000e+00	(3.99999122248545e+01dB,1.79994269332257e+02°)
1.00000000000000e+02	(3.99994779966008e+01dB,1.79426952381097e+02°)
1.00000000000000e+07	(-2.01703427438092e+01dB,7.87472559834738e+01°)
Step Information: Run=65  (Run: 65/128)
1.00000000000000e+00	(3.99999122222659e+01dB,1.79994269330121e+02°)
1.00000000000000e+02	(3.99994779982527e+01dB,1.79426952385475e+02°)
1.00000000000000e+07	(-2.01703427504907e+01dB,7.87472557630943e+01°)
Step Information: Run=66  (Run: 66/128)
1.00000000000000e+00	(3.99999122248545e+01dB,1.79994269332257e+02°)
1.00000000000000e+02	(3.99994779966008e+01dB,1.79426952381097e+02°)
1.00000000000000e+07	(-2.01703427438092e+01dB,7.87472559834738e+01°)
Step Information: Run=67  (Run: 67/128)
1.00000000000000e+00	(3.99999122222659e+01dB,1.79994269330121e+02°)
1.00000000000000e+02	(3.99994779982527e+01dB,1.79426952385475e+02°)
1.00000000000000e+07	(-2.01703427504907e+01dB,7.87472557630943e+01°)
Step Information: Run=68  (Run: 68/128)
1.00000000000000e+00	(3.99999122248545e+01dB,1.79994269332257e+02°)
1.00000000000000e+02	(3.99994779966008e+01dB,1.79426952381097e+02°)
1.00000000000000e+07	(-2.01703427438092e+01dB,7.87472559834738e+01°)
Step Information: Run=69  (Run: 69/128)
1.00000000000000e+00	(3.99999122222659e+01dB,1.79994269330121e+02°)
1.00000000000000e+02	(3.99994779982527e+01dB,1.79426952385475e+02°)
1.00000000000000e+07	(-2.01703427504907e+01dB,7.87472557630943e+01°)
Step Information: Run=70  (Run: 70/128)
1.00000000000000e+00	(3.99999122248545e+01dB,1.79994269332257e+02°)
1.00000000000000e+02	(3.99994779966008e+01dB,1.79426952381097e+02°)
1.00000000000000e+07	(-2.01703427438092e+01dB,7.87472559834738e+01°)
Step Information: Run=71  (Run: 71/128)
1.00000000000000e+00	(3.99999122222659e+01dB,1.79994269330121e+02°)
1.00000000000000e+02	(3.99994779982527e+01dB,1.79426952385475e+02°)
1.00000000000000e+07	(-2.01703427504907e+01dB,7.87472557630943e+01°)
Step Information: Run=72  (Run: 72/128)
1.00000000000000e+00	(3.99999122248545e+01dB,1.79994269332257e+02°)
1.00000000000000e+02	(3.99994779966008e+01dB,1.79426952381097e+02°)
1.00000000000000e+07	(-2.01703427438092e+01dB,7.87472559834738e+01°)
Step Information: Run=73  (Run: 73/128)
1.00000000000000e+00	(3.99999122222659e+01dB,1.79994269330121e+02°)
1.00000000000000e+02	(3.99994779982527e+01dB,1.79426952385475e+02°)
1.00000000000000e+07	(-2.01703427504907e+01dB,7.87472557630943e+01°)
Step Information: Run=74  (Run: 74/128)
1.00000000000000e+00	(3.99999122248545e+01dB,1.79994269332257e+02°)
1.00000000000000e+02	(3.99994779966008e+01dB,1.79426952381097e+02°)
1.00000000000000e+07	(-2.01703427438092e+01dB,7.87472559834738e+01°)
Step Information: Run=75  (Run: 75/128)
1.00000000000000e+00	(3.99999122222659e+01dB,1.79994269330121e+02°)
1.00000000000000e+02	(3.99994779982527e+01dB,1.79426952385475e+02°)
1.00000000000000e+07	(-2.01703427504907e+01dB,7.87472557630943e+01°)
Step Information: Run=76  (Run: 76/128)
1.00000000000000e+00	(3.99999122248545e+01dB,1.79994269332257e+02°)
1.00000000000000e+02	(3.99994779966008e+01dB,1.79426952381097e+02°)
1.00000000000000e+07	(-2.01703427438092e+01dB,7.87472559834738e+01°)
Step Information: Run=77  (Run: 77/128)
1.00000000000000e+00	(3.99999122222659e+01dB,1.79994269330121e+02°)
1.00000000000000e+02	(3.99994779982527e+01dB,1.79426952385475e+02°)
1.00000000000000e+07	(-2.01703427504907e+01dB,7.87472557630943e+01°)
Step Information: Run=78  (Run: 78/128)
1.00000000000000e+00	(3.99999122248545e+01dB,1.79994269332257e+02°)
1.00000000000000e+02	(3.99994779966008e+01dB,1.79426952381097e+02°)
1.00000000000000e+07	(-2.01703427438092e+01dB,7.87472559834738e+01°)
Step Information: Run=79  (Run: 79/128)
1.00000000000000e+00	(3.99999122222659e+01dB,1.79994269330121e+02°)
1.00000000000000e+02	(3.99994779982527e+01dB,1.79426952385475e+02°)
1.00000000000000e+07	(-2.01703427504907e+01dB,7.87472557630943e+01°)
Step Information: Run=80  (Run: 80/128)
1.00000000000000e+00	(3.99999122248545e+01dB,1.79994269332257e+02°)
1.00000000000000e+02	(3.99994779966008e+01dB,1.79426952381097e+02°)
1.00000000000000e+07	(-2.01703427438092e+01dB,7.87472559834738e+01°)
Step Information: Run=81  (Run: 81/128)
