time	V(vcap)	I(C1)	I(V1)
0.000000000000000e+00	0.000000e+00	0.000000e+00	-9.999010e-07
4.882812226379360e-14	4.882329e-09	7.499257e-07	-9.999010e-07
9.765624452758720e-14	9.764658e-09	9.999010e-07	-9.999010e-07
7.226562095041455e-12	7.185439e-07	9.982841e-07	-9.982841e-07
1.435546794555532e-11	1.431806e-06	9.984605e-07	-9.984605e-07
2.148437379606919e-11	2.149550e-06	1.000430e-06	-1.000430e-06
2.861327964658306e-11	2.871778e-06	1.004193e-06	-1.004193e-06
3.574218549709693e-11	3.598488e-06	1.009750e-06	-1.009750e-06
4.287109134761079e-11	4.329680e-06	1.017099e-06	-1.017099e-06
4.999999719812465e-11	5.065356e-06	1.026242e-06	-1.026242e-06
9.999999439624929e-11	1.465947e-05	2.074045e-06	-2.074045e-06
1.857253541617671e-10	5.387824e-05	1.023994e-05	-1.023994e-05
2.200251027491880e-10	9.940110e-05	2.402719e-05	-2.402719e-05
2.425436155578081e-10	1.702933e-04	4.873682e-05	-4.873682e-05
2.573383934113231e-10	2.613335e-04	8.281798e-05	-8.281798e-05
2.704816804198142e-10	4.005555e-04	1.369391e-04	-1.369391e-04
2.815464213687672e-10	5.906757e-04	2.124130e-04	-2.124130e-04
2.925335271319501e-10	8.945361e-04	3.339330e-04	-3.339330e-04
3.045617788994253e-10	1.439006e-03	5.499293e-04	-5.499293e-04
3.178790881707620e-10	2.435770e-03	9.354653e-04	-9.354653e-04
3.310391346727333e-10	4.078978e-03	1.536600e-03	-1.536600e-03
3.452043221429497e-10	6.974649e-03	2.491266e-03	-2.491266e-03
3.601931578263878e-10	1.183565e-02	3.814878e-03	-3.814878e-03
3.782053007560058e-10	2.068026e-02	5.505552e-03	-5.505552e-03
4.040425382866743e-10	3.788555e-02	7.418850e-03	-7.418850e-03
4.312947634135945e-10	5.968336e-02	8.472628e-03	-8.472628e-03
4.652060387295501e-10	8.909216e-02	8.806737e-03	-8.806737e-03
5.029438238812913e-10	1.219362e-01	8.685531e-03	-8.685531e-03
5.767240352512666e-10	1.845085e-01	8.143730e-03	-8.143730e-03
6.387251608961283e-10	2.331234e-01	7.660936e-03	-7.660936e-03
6.900000000000000e-10	2.718155e-01	7.274570e-03	-7.274570e-03
7.361473551934846e-10	3.042185e-01	6.950865e-03	-6.950865e-03
7.822947103869691e-10	3.350791e-01	6.642567e-03	-6.642567e-03
8.284420655804537e-10	3.643974e-01	6.349676e-03	-6.349676e-03
8.745894207739383e-10	3.921734e-01	6.072193e-03	-6.072193e-03
9.207367759674229e-10	4.184072e-01	5.810118e-03	-5.810118e-03
9.668841311609073e-10	4.430985e-01	5.563451e-03	-5.563451e-03
1.013031486354392e-09	4.662476e-01	5.332191e-03	-5.332191e-03
1.341190456619171e-09	6.065563e-01	3.930506e-03	-3.930506e-03
1.839282697441192e-09	7.563959e-01	2.433607e-03	-2.433607e-03
2.370870002116212e-09	8.559824e-01	1.438738e-03	-1.438738e-03
3.029013419134153e-09	9.243619e-01	7.556247e-04	-7.556247e-04
3.772416802636000e-09	9.634351e-01	3.652841e-04	-3.652841e-04
4.754071458438212e-09	9.857480e-01	1.423776e-04	-1.423776e-04
5.957777535099528e-09	9.963852e-01	3.611251e-05	-3.611251e-05
6.647777535099528e-09	9.986545e-01	1.344106e-05	-1.344106e-05
6.900000000000001e-09	9.990016e-01	9.973911e-06	-9.973911e-06
7.085555070199055e-09	9.991757e-01	8.234027e-06	-8.234027e-06
7.218889859601891e-09	9.992808e-01	7.185386e-06	-7.185386e-06
7.323330421194328e-09	9.993533e-01	6.460002e-06	-6.460002e-06
7.381118876815128e-09	9.993898e-01	6.096182e-06	-6.096182e-06
7.474423088758399e-09	9.994434e-01	5.560710e-06	-5.560710e-06
7.590000000000000e-09	9.995055e-01	4.940524e-06	-4.940524e-06
7.670903837869121e-09	9.995434e-01	4.559565e-06	-4.559565e-06
7.763365366862402e-09	9.995779e-01	3.682713e-06	-3.682713e-06
7.948288424848964e-09	9.996153e-01	1.609161e-06	-1.609161e-06
8.280000000000000e-09	9.996368e-01	3.631258e-10	-3.631258e-10
1.380000000000000e-08	9.996371e-01	3.629255e-10	-3.629255e-10
1.386386428664672e-08	9.996371e-01	7.635237e-10	-7.635237e-10
1.399159285994015e-08	9.996437e-01	5.175265e-07	-5.175265e-07
1.424705000652701e-08	9.996846e-01	2.201133e-06	-2.201133e-06
1.449000000000000e-08	9.997452e-01	2.545687e-06	-2.545687e-06
1.456288499804190e-08	9.997627e-01	2.370307e-06	-2.370307e-06
1.466006499543109e-08	9.997840e-01	2.158070e-06	-2.158070e-06
1.485442499020948e-08	9.998199e-01	1.799057e-06	-1.799057e-06
1.524314497976626e-08	9.998725e-01	1.273576e-06	-1.273576e-06
1.602058495887981e-08	9.999328e-01	6.715744e-07	-6.715745e-07
1.757546491710692e-08	9.999874e-01	1.259151e-07	-1.259151e-07
1.828024008354578e-08	9.999961e-01	3.877835e-08	-3.877835e-08
1.968979041642351e-08	9.999991e-01	8.853553e-09	-8.853553e-09
2.037979041642351e-08	9.999997e-01	2.874771e-09	-2.874771e-09
2.139000000000000e-08	9.999999e-01	9.702887e-10	-9.702887e-10
2.208000000000000e-08	9.999999e-01	6.990242e-14	-6.990902e-14
2.760000000000000e-08	9.999999e-01	6.986772e-14	-6.987044e-14
2.829000000000000e-08	9.999999e-01	4.913437e-10	-4.913439e-10
3.519000000000000e-08	1.000000e+00	1.942058e-13	-1.936229e-13
3.588000000000000e-08	1.000000e+00	2.775558e-17	-1.407218e-17
4.140000000000000e-08	1.000000e+00	6.938894e-18	-1.406604e-17
4.209000000000000e-08	1.000000e+00	9.876822e-14	-9.947598e-14
4.899000000000000e-08	1.000000e+00	4.163336e-17	0.000000e+00
4.968000000000001e-08	1.000000e+00	0.000000e+00	-3.388132e-21
5.520000000000000e-08	1.000000e+00	0.000000e+00	-4.023406e-21
5.589000000000000e-08	1.000000e+00	4.163336e-17	0.000000e+00
6.279000000000000e-08	1.000000e+00	0.000000e+00	0.000000e+00
6.348000000000000e-08	1.000000e+00	0.000000e+00	-8.470329e-22
6.900000000000000e-08	1.000000e+00	-6.938894e-18	-1.482308e-21
6.969000000000000e-08	1.000000e+00	2.775558e-17	0.000000e+00
7.659000000000000e-08	1.000000e+00	-3.469447e-18	0.000000e+00
7.728000000000000e-08	1.000000e+00	0.000000e+00	-4.235165e-22
8.280000000000000e-08	1.000000e+00	-6.938894e-18	-4.235165e-22
8.349000000000000e-08	1.000000e+00	1.387779e-17	0.000000e+00
9.039000000000000e-08	1.000000e+00	-3.469447e-18	0.000000e+00
9.108000000000001e-08	1.000000e+00	0.000000e+00	0.000000e+00
9.660000000000000e-08	1.000000e+00	0.000000e+00	-4.235165e-22
9.728999999999999e-08	1.000000e+00	1.387779e-17	0.000000e+00
1.041900000000000e-07	1.000000e+00	0.000000e+00	0.000000e+00
1.048800000000000e-07	1.000000e+00	0.000000e+00	2.117582e-22
1.104000000000000e-07	1.000000e+00	-6.938894e-18	-4.235165e-22
1.110900000000000e-07	1.000000e+00	0.000000e+00	0.000000e+00
1.179900000000000e-07	1.000000e+00	-3.469447e-18	0.000000e+00
1.186800000000000e-07	1.000000e+00	0.000000e+00	-8.470329e-22
1.242000000000000e-07	1.000000e+00	0.000000e+00	-6.352747e-22
1.248900000000000e-07	1.000000e+00	1.387779e-17	0.000000e+00
1.317900000000000e-07	1.000000e+00	3.469447e-18	0.000000e+00
1.324800000000000e-07	1.000000e+00	0.000000e+00	0.000000e+00
1.380000000000000e-07	1.000000e+00	-6.938894e-18	-8.470329e-22
1.386900000000000e-07	1.000000e+00	0.000000e+00	0.000000e+00
1.455900000000000e-07	1.000000e+00	0.000000e+00	0.000000e+00
1.462800000000000e-07	1.000000e+00	0.000000e+00	0.000000e+00
1.518000000000000e-07	1.000000e+00	-6.938894e-18	-8.470329e-22
1.524900000000000e-07	1.000000e+00	0.000000e+00	0.000000e+00
1.593900000000000e-07	1.000000e+00	0.000000e+00	0.000000e+00
1.600800000000000e-07	1.000000e+00	0.000000e+00	0.000000e+00
1.656000000000000e-07	1.000000e+00	-6.938894e-18	-8.470329e-22
1.662900000000000e-07	1.000000e+00	0.000000e+00	0.000000e+00
1.731900000000000e-07	1.000000e+00	0.000000e+00	0.000000e+00
1.738800000000000e-07	1.000000e+00	0.000000e+00	0.000000e+00
1.794000000000000e-07	1.000000e+00	-6.938894e-18	-8.470329e-22
1.800900000000000e-07	1.000000e+00	0.000000e+00	0.000000e+00
1.869900000000000e-07	1.000000e+00	0.000000e+00	0.000000e+00
1.876800000000000e-07	1.000000e+00	0.000000e+00	0.000000e+00
1.932000000000000e-07	1.000000e+00	-6.938894e-18	-8.470329e-22
1.938900000000000e-07	1.000000e+00	2.775558e-17	0.000000e+00
2.007900000000000e-07	1.000000e+00	0.000000e+00	0.000000e+00
2.014799999999999e-07	1.000000e+00	0.000000e+00	4.235165e-22
2.070000000000000e-07	1.000000e+00	-6.938894e-18	-6.352747e-22
2.076900000000000e-07	1.000000e+00	-1.387779e-17	0.000000e+00
2.145900000000000e-07	1.000000e+00	0.000000e+00	0.000000e+00
2.152800000000000e-07	1.000000e+00	0.000000e+00	4.235165e-22
2.208000000000000e-07	1.000000e+00	-6.938894e-18	-6.352747e-22
2.214900000000000e-07	1.000000e+00	-1.387779e-17	0.000000e+00
2.283900000000000e-07	1.000000e+00	0.000000e+00	0.000000e+00
2.290800000000000e-07	1.000000e+00	0.000000e+00	4.235165e-22
2.346000000000000e-07	1.000000e+00	-6.938894e-18	-6.352747e-22
2.352900000000000e-07	1.000000e+00	-1.387779e-17	0.000000e+00
2.421900000000000e-07	1.000000e+00	0.000000e+00	0.000000e+00
2.428800000000000e-07	1.000000e+00	0.000000e+00	4.235165e-22
2.484000000000000e-07	1.000000e+00	0.000000e+00	-6.352747e-22
2.490900000000000e-07	1.000000e+00	1.387779e-17	0.000000e+00
2.559900000000000e-07	1.000000e+00	0.000000e+00	0.000000e+00
2.566799999999999e-07	1.000000e+00	0.000000e+00	4.235165e-22
2.622000000000000e-07	1.000000e+00	0.000000e+00	-6.352747e-22
2.628899999999999e-07	1.000000e+00	1.387779e-17	0.000000e+00
2.697900000000000e-07	1.000000e+00	0.000000e+00	0.000000e+00
2.704800000000000e-07	1.000000e+00	0.000000e+00	4.235165e-22
2.760000000000000e-07	1.000000e+00	0.000000e+00	-6.352747e-22
2.766900000000000e-07	1.000000e+00	1.387779e-17	0.000000e+00
2.835900000000000e-07	1.000000e+00	0.000000e+00	0.000000e+00
2.842799999999999e-07	1.000000e+00	0.000000e+00	4.235165e-22
2.898000000000000e-07	1.000000e+00	0.000000e+00	-6.352747e-22
2.904899999999999e-07	1.000000e+00	1.387779e-17	0.000000e+00
2.973900000000000e-07	1.000000e+00	0.000000e+00	0.000000e+00
2.980800000000000e-07	1.000000e+00	0.000000e+00	4.235165e-22
3.036000000000000e-07	1.000000e+00	0.000000e+00	-6.352747e-22
3.042900000000000e-07	1.000000e+00	1.387779e-17	0.000000e+00
3.111900000000000e-07	1.000000e+00	0.000000e+00	0.000000e+00
3.118800000000000e-07	1.000000e+00	0.000000e+00	4.235165e-22
3.174000000000000e-07	1.000000e+00	0.000000e+00	-6.352747e-22
3.180900000000000e-07	1.000000e+00	1.387779e-17	0.000000e+00
3.249899999999999e-07	1.000000e+00	0.000000e+00	0.000000e+00
3.256799999999999e-07	1.000000e+00	0.000000e+00	4.235165e-22
3.311999999999999e-07	1.000000e+00	0.000000e+00	-6.352747e-22
3.318899999999999e-07	1.000000e+00	1.387779e-17	0.000000e+00
3.387900000000000e-07	1.000000e+00	0.000000e+00	0.000000e+00
3.394800000000000e-07	1.000000e+00	0.000000e+00	4.235165e-22
3.450000000000000e-07	1.000000e+00	0.000000e+00	-6.352747e-22
3.456900000000000e-07	1.000000e+00	1.387779e-17	0.000000e+00
3.525900000000000e-07	1.000000e+00	0.000000e+00	0.000000e+00
3.532799999999999e-07	1.000000e+00	0.000000e+00	4.235165e-22
3.588000000000000e-07	1.000000e+00	0.000000e+00	-6.352747e-22
3.594899999999999e-07	1.000000e+00	1.387779e-17	0.000000e+00
3.663900000000000e-07	1.000000e+00	0.000000e+00	0.000000e+00
3.670800000000000e-07	1.000000e+00	0.000000e+00	4.235165e-22
3.726000000000000e-07	1.000000e+00	0.000000e+00	-6.352747e-22
3.732900000000000e-07	1.000000e+00	1.387779e-17	0.000000e+00
3.801900000000000e-07	1.000000e+00	0.000000e+00	0.000000e+00
3.808800000000000e-07	1.000000e+00	0.000000e+00	4.235165e-22
3.864000000000000e-07	1.000000e+00	0.000000e+00	-6.352747e-22
3.870900000000000e-07	1.000000e+00	1.387779e-17	0.000000e+00
3.939899999999999e-07	1.000000e+00	0.000000e+00	0.000000e+00
3.946799999999999e-07	1.000000e+00	0.000000e+00	4.235165e-22
4.001999999999999e-07	1.000000e+00	0.000000e+00	-6.352747e-22
4.008899999999999e-07	1.000000e+00	1.387779e-17	0.000000e+00
4.077900000000000e-07	1.000000e+00	0.000000e+00	0.000000e+00
4.084800000000000e-07	1.000000e+00	0.000000e+00	4.235165e-22
4.140000000000000e-07	1.000000e+00	0.000000e+00	-6.352747e-22
4.146900000000000e-07	1.000000e+00	1.387779e-17	0.000000e+00
4.215900000000000e-07	1.000000e+00	0.000000e+00	0.000000e+00
4.222799999999999e-07	1.000000e+00	0.000000e+00	4.235165e-22
4.278000000000000e-07	1.000000e+00	0.000000e+00	-6.352747e-22
4.284899999999999e-07	1.000000e+00	1.387779e-17	0.000000e+00
4.353900000000000e-07	1.000000e+00	0.000000e+00	0.000000e+00
4.360800000000000e-07	1.000000e+00	0.000000e+00	4.235165e-22
4.361628000000000e-07	1.000000e+00	0.000000e+00	4.235165e-22
4.416000000000000e-07	1.000000e+00	0.000000e+00	-6.352747e-22
4.422900000000000e-07	1.000000e+00	1.387779e-17	0.000000e+00
4.491900000000000e-07	1.000000e+00	0.000000e+00	0.000000e+00
4.498799999999999e-07	1.000000e+00	0.000000e+00	4.235165e-22
4.554000000000000e-07	1.000000e+00	0.000000e+00	-6.352747e-22
4.560900000000000e-07	1.000000e+00	1.387779e-17	0.000000e+00
4.629899999999999e-07	1.000000e+00	0.000000e+00	0.000000e+00
4.636799999999999e-07	1.000000e+00	0.000000e+00	4.235165e-22
4.691999999999999e-07	1.000000e+00	-6.938894e-18	-2.117582e-22
4.698900000000000e-07	1.000000e+00	1.387779e-17	0.000000e+00
4.767900000000000e-07	1.000000e+00	0.000000e+00	0.000000e+00
4.774800000000000e-07	1.000000e+00	0.000000e+00	4.235165e-22
4.830000000000000e-07	1.000000e+00	0.000000e+00	-6.352747e-22
4.836900000000000e-07	1.000000e+00	0.000000e+00	0.000000e+00
4.905899999999999e-07	1.000000e+00	0.000000e+00	0.000000e+00
4.912799999999999e-07	1.000000e+00	0.000000e+00	4.235165e-22
4.967999999999999e-07	1.000000e+00	0.000000e+00	-6.352747e-22
4.974899999999999e-07	1.000000e+00	0.000000e+00	0.000000e+00
5.043899999999999e-07	1.000000e+00	0.000000e+00	0.000000e+00
5.050799999999999e-07	1.000000e+00	0.000000e+00	4.235165e-22
5.105999999999999e-07	1.000000e+00	0.000000e+00	-6.352747e-22
5.112899999999999e-07	1.000000e+00	0.000000e+00	0.000000e+00
5.181900000000000e-07	1.000000e+00	3.469447e-18	0.000000e+00
5.188800000000000e-07	1.000000e+00	0.000000e+00	4.235165e-22
5.244000000000000e-07	1.000000e+00	0.000000e+00	-6.352747e-22
5.250900000000000e-07	1.000000e+00	0.000000e+00	0.000000e+00
5.319900000000000e-07	1.000000e+00	0.000000e+00	0.000000e+00
5.326800000000000e-07	1.000000e+00	0.000000e+00	4.235165e-22
5.382000000000000e-07	1.000000e+00	0.000000e+00	-6.352747e-22
5.388900000000000e-07	1.000000e+00	0.000000e+00	0.000000e+00
5.457900000000000e-07	1.000000e+00	0.000000e+00	0.000000e+00
5.464800000000000e-07	1.000000e+00	0.000000e+00	4.235165e-22
5.520000000000000e-07	1.000000e+00	0.000000e+00	-6.352747e-22
5.526900000000000e-07	1.000000e+00	0.000000e+00	0.000000e+00
5.595899999999999e-07	1.000000e+00	0.000000e+00	0.000000e+00
5.602799999999999e-07	1.000000e+00	0.000000e+00	4.235165e-22
5.657999999999999e-07	1.000000e+00	0.000000e+00	-6.352747e-22
5.664899999999999e-07	1.000000e+00	0.000000e+00	0.000000e+00
5.733899999999999e-07	1.000000e+00	0.000000e+00	0.000000e+00
5.740799999999999e-07	1.000000e+00	0.000000e+00	4.235165e-22
5.795999999999999e-07	1.000000e+00	0.000000e+00	-6.352747e-22
5.802899999999999e-07	1.000000e+00	0.000000e+00	0.000000e+00
5.871900000000000e-07	1.000000e+00	0.000000e+00	0.000000e+00
5.878800000000000e-07	1.000000e+00	0.000000e+00	0.000000e+00
5.934000000000000e-07	1.000000e+00	0.000000e+00	-4.235165e-22
5.940900000000000e-07	1.000000e+00	0.000000e+00	0.000000e+00
6.009900000000000e-07	1.000000e+00	0.000000e+00	0.000000e+00
6.016800000000000e-07	1.000000e+00	0.000000e+00	4.235165e-22
6.072000000000000e-07	1.000000e+00	0.000000e+00	-6.352747e-22
6.078900000000000e-07	1.000000e+00	0.000000e+00	0.000000e+00
6.147900000000000e-07	1.000000e+00	0.000000e+00	0.000000e+00
6.154799999999999e-07	1.000000e+00	0.000000e+00	4.235165e-22
6.210000000000000e-07	1.000000e+00	0.000000e+00	-6.352747e-22
6.216900000000000e-07	1.000000e+00	0.000000e+00	0.000000e+00
6.285899999999999e-07	1.000000e+00	0.000000e+00	0.000000e+00
6.292799999999999e-07	1.000000e+00	0.000000e+00	4.235165e-22
6.347999999999999e-07	1.000000e+00	0.000000e+00	-6.352747e-22
6.354899999999999e-07	1.000000e+00	0.000000e+00	0.000000e+00
6.423899999999999e-07	1.000000e+00	0.000000e+00	0.000000e+00
6.430799999999999e-07	1.000000e+00	0.000000e+00	4.235165e-22
6.485999999999999e-07	1.000000e+00	0.000000e+00	-6.352747e-22
6.492899999999999e-07	1.000000e+00	0.000000e+00	0.000000e+00
6.561900000000000e-07	1.000000e+00	3.469447e-18	0.000000e+00
6.568800000000000e-07	1.000000e+00	0.000000e+00	4.235165e-22
6.624000000000000e-07	1.000000e+00	0.000000e+00	-6.352747e-22
6.630900000000000e-07	1.000000e+00	0.000000e+00	0.000000e+00
6.699900000000000e-07	1.000000e+00	0.000000e+00	0.000000e+00
6.706800000000000e-07	1.000000e+00	0.000000e+00	4.235165e-22
6.762000000000000e-07	1.000000e+00	0.000000e+00	-6.352747e-22
6.768900000000000e-07	1.000000e+00	0.000000e+00	0.000000e+00
6.837900000000000e-07	1.000000e+00	0.000000e+00	0.000000e+00
6.844799999999999e-07	1.000000e+00	0.000000e+00	4.235165e-22
6.900000000000000e-07	1.000000e+00	0.000000e+00	-6.352747e-22
6.906899999999999e-07	1.000000e+00	0.000000e+00	0.000000e+00
6.975899999999999e-07	1.000000e+00	0.000000e+00	0.000000e+00
6.982799999999999e-07	1.000000e+00	0.000000e+00	4.235165e-22
7.037999999999999e-07	1.000000e+00	0.000000e+00	-6.352747e-22
7.044899999999999e-07	1.000000e+00	0.000000e+00	0.000000e+00
7.113899999999999e-07	1.000000e+00	0.000000e+00	0.000000e+00
7.120799999999999e-07	1.000000e+00	0.000000e+00	4.235165e-22
7.175999999999999e-07	1.000000e+00	0.000000e+00	-6.352747e-22
7.182899999999999e-07	1.000000e+00	0.000000e+00	0.000000e+00
7.251900000000000e-07	1.000000e+00	0.000000e+00	0.000000e+00
7.258800000000000e-07	1.000000e+00	0.000000e+00	0.000000e+00
7.314000000000000e-07	1.000000e+00	0.000000e+00	-4.235165e-22
7.320900000000000e-07	1.000000e+00	0.000000e+00	0.000000e+00
7.389900000000000e-07	1.000000e+00	0.000000e+00	0.000000e+00
7.396800000000000e-07	1.000000e+00	0.000000e+00	4.235165e-22
7.452000000000000e-07	1.000000e+00	0.000000e+00	-6.352747e-22
7.458900000000000e-07	1.000000e+00	0.000000e+00	0.000000e+00
7.527900000000000e-07	1.000000e+00	0.000000e+00	0.000000e+00
7.534799999999999e-07	1.000000e+00	0.000000e+00	4.235165e-22
7.590000000000000e-07	1.000000e+00	0.000000e+00	-6.352747e-22
7.596899999999999e-07	1.000000e+00	0.000000e+00	0.000000e+00
7.665899999999999e-07	1.000000e+00	0.000000e+00	0.000000e+00
7.672799999999999e-07	1.000000e+00	0.000000e+00	4.235165e-22
7.727999999999999e-07	1.000000e+00	0.000000e+00	-6.352747e-22
7.734899999999999e-07	1.000000e+00	0.000000e+00	0.000000e+00
7.803899999999999e-07	1.000000e+00	0.000000e+00	0.000000e+00
7.810799999999999e-07	1.000000e+00	0.000000e+00	4.235165e-22
7.865999999999999e-07	1.000000e+00	0.000000e+00	-6.352747e-22
7.872899999999999e-07	1.000000e+00	0.000000e+00	0.000000e+00
7.941900000000000e-07	1.000000e+00	3.469447e-18	0.000000e+00
7.948800000000000e-07	1.000000e+00	0.000000e+00	4.235165e-22
8.004000000000000e-07	1.000000e+00	0.000000e+00	-6.352747e-22
8.010900000000000e-07	1.000000e+00	0.000000e+00	0.000000e+00
8.079900000000000e-07	1.000000e+00	0.000000e+00	0.000000e+00
8.086800000000000e-07	1.000000e+00	0.000000e+00	4.235165e-22
8.142000000000000e-07	1.000000e+00	0.000000e+00	-6.352747e-22
8.148900000000000e-07	1.000000e+00	0.000000e+00	0.000000e+00
8.217899999999999e-07	1.000000e+00	0.000000e+00	0.000000e+00
8.224799999999999e-07	1.000000e+00	0.000000e+00	4.235165e-22
8.279999999999999e-07	1.000000e+00	0.000000e+00	-6.352747e-22
8.286899999999999e-07	1.000000e+00	0.000000e+00	0.000000e+00
8.355899999999999e-07	1.000000e+00	0.000000e+00	0.000000e+00
8.362799999999999e-07	1.000000e+00	0.000000e+00	4.235165e-22
8.417999999999999e-07	1.000000e+00	0.000000e+00	-6.352747e-22
8.424899999999999e-07	1.000000e+00	0.000000e+00	0.000000e+00
8.493899999999999e-07	1.000000e+00	0.000000e+00	0.000000e+00
8.500799999999999e-07	1.000000e+00	0.000000e+00	4.235165e-22
8.555999999999999e-07	1.000000e+00	0.000000e+00	-6.352747e-22
8.562899999999999e-07	1.000000e+00	0.000000e+00	0.000000e+00
8.631900000000000e-07	1.000000e+00	0.000000e+00	0.000000e+00
8.638800000000000e-07	1.000000e+00	0.000000e+00	0.000000e+00
8.694000000000000e-07	1.000000e+00	0.000000e+00	-4.235165e-22
