Freq.	V(vcap)
1.00000000000000e+06	(-1.71449204950224e-04dB,-3.59995262702100e-01°)
1.02329299228075e+06	(-1.79529190036255e-04dB,-3.68380401120583e-01°)
1.04712854805090e+06	(-1.87989956975587e-04dB,-3.76960838165013e-01°)
1.07151930523761e+06	(-1.96849449910611e-04dB,-3.85741121756326e-01°)
1.09647819614319e+06	(-2.06126458513747e-04dB,-3.94725905666586e-01°)
1.12201845430196e+06	(-2.15840657823489e-04dB,-4.03919951978602e-01°)
1.14815362149688e+06	(-2.26012649951640e-04dB,-4.13328133602404e-01°)
1.17489755493953e+06	(-2.36664007765057e-04dB,-4.22955436849883e-01°)
1.20226443461741e+06	(-2.47817320607627e-04dB,-4.32806964068909e-01°)
1.23026877081238e+06	(-2.59496242192809e-04dB,-4.42887936338278e-01°)
1.25892541179417e+06	(-2.71725540730568e-04dB,-4.53203696224872e-01°)
1.28824955169313e+06	(-2.84531151446072e-04dB,-4.63759710604441e-01°)
1.31825673855641e+06	(-2.97940231529900e-04dB,-4.74561573547437e-01°)
1.34896288259165e+06	(-3.11981217714785e-04dB,-4.85615009271376e-01°)
1.38038426460288e+06	(-3.26683886536997e-04dB,-4.96925875161233e-01°)
1.41253754462275e+06	(-3.42079417443688e-04dB,-5.08500164859389e-01°)
1.44543977074593e+06	(-3.58200458876684e-04dB,-5.20344011426703e-01°)
1.47910838816821e+06	(-3.75081197445882e-04dB,-5.32463690576302e-01°)
1.51356124843621e+06	(-3.92757430388361e-04dB,-5.44865623981717e-01°)
1.54881661891248e+06	(-4.11266641414881e-04dB,-5.57556382661030e-01°)
1.58489319246111e+06	(-4.30648080134151e-04dB,-5.70542690438717e-01°)
1.62181009735893e+06	(-4.50942845215445e-04dB,-5.83831427486935e-01°)
1.65958690743756e+06	(-4.72193971459796e-04dB,-5.97429633948000e-01°)
1.69824365246174e+06	(-4.94446520976103e-04dB,-6.11344513639864e-01°)
1.73780082874937e+06	(-5.17747678637332e-04dB,-6.25583437846422e-01°)
1.77827941003892e+06	(-5.42146852031562e-04dB,-6.40153949194529e-01°)
1.81970085860998e+06	(-5.67695776124668e-04dB,-6.55063765619609e-01°)
1.86208713666287e+06	(-5.94448622822521e-04dB,-6.70320784421835e-01°)
1.90546071796325e+06	(-6.22462115707507e-04dB,-6.85933086414822e-01°)
1.94984459975804e+06	(-6.51795650170210e-04dB,-7.01908940168876e-01°)
1.99526231496888e+06	(-6.82511419167834e-04dB,-7.18256806350838e-01°)
2.04173794466953e+06	(-7.14674544924935e-04dB,-7.34985342162617e-01°)
2.08929613085404e+06	(-7.48353216805347e-04dB,-7.52103405880543e-01°)
2.13796208950223e+06	(-7.83618835669189e-04dB,-7.69620061497700e-01°)
2.18776162394955e+06	(-8.20546165021267e-04dB,-7.87544583471439e-01°)
2.23872113856834e+06	(-8.59213489258270e-04dB,-8.05886461578320e-01°)
2.29086765276777e+06	(-8.99702779357088e-04dB,-8.24655405878750e-01°)
2.34422881531992e+06	(-9.42099866324548e-04dB,-8.43861351793637e-01°)
2.39883291901949e+06	(-9.86494622838038e-04dB,-8.63514465295403e-01°)
2.45470891568503e+06	(-1.03298115336883e-03dB,-8.83625148215752e-01°)
2.51188643150958e+06	(-1.08165799327685e-03dB,-9.04204043672607e-01°)
2.57039578276886e+06	(-1.13262831722417e-03dB,-9.25262041618679e-01°)
2.63026799189538e+06	(-1.18600015738303e-03dB,-9.46810284514154e-01°)
2.69153480392691e+06	(-1.24188663188368e-03dB,-9.68860173126032e-01°)
2.75422870333816e+06	(-1.30040618398713e-03dB,-9.91423372456674e-01°)
2.81838293126445e+06	(-1.36168283247907e-03dB,-1.01451181780413e+00°)
2.88403150312660e+06	(-1.42584643379776e-03dB,-1.03813772095693e+00°)
2.95120922666638e+06	(-1.49303295646350e-03dB,-1.06231357652585e+00°)
3.01995172040201e+06	(-1.56338476838509e-03dB,-1.08705216841557e+00°)
3.09029543251359e+06	(-1.63705093760903e-03dB,-1.11236657643859e+00°)
3.16227766016838e+06	(-1.71418754718551e-03dB,-1.13827018307454e+00°)
3.23593656929628e+06	(-1.79495802477311e-03dB,-1.16477668037720e+00°)
3.31131121482591e+06	(-1.87953348768951e-03dB,-1.19190007703239e+00°)
3.38844156139202e+06	(-1.96809310410380e-03dB,-1.21965470556921e+00°)
3.46736850452531e+06	(-2.06082447115773e-03dB,-1.24805522972763e+00°)
3.54813389233575e+06	(-2.15792401075657e-03dB,-1.27711665198511e+00°)
3.63078054770101e+06	(-2.25959738389306e-03dB,-1.30685432124515e+00°)
3.71535229097172e+06	(-2.36605992433810e-03dB,-1.33728394069055e+00°)
3.80189396320561e+06	(-2.47753709260366e-03dB,-1.36842157580416e+00°)
3.89045144994280e+06	(-2.59426495110552e-03dB,-1.40028366255995e+00°)
3.98107170553497e+06	(-2.71649066155692e-03dB,-1.43288701578730e+00°)
4.07380277804112e+06	(-2.84447300552580e-03dB,-1.46624883771107e+00°)
4.16869383470335e+06	(-2.97848292934511e-03dB,-1.50038672667036e+00°)
4.26579518801592e+06	(-3.11880411438932e-03dB,-1.53531868601871e+00°)
4.36515832240165e+06	(-3.26573357396435e-03dB,-1.57106313320827e+00°)
4.46683592150962e+06	(-3.41958227801583e-03dB,-1.60763890906066e+00°)
4.57088189614874e+06	(-3.58067580689928e-03dB,-1.64506528722718e+00°)
4.67735141287197e+06	(-3.74935503562101e-03dB,-1.68336198384076e+00°)
4.78630092322638e+06	(-3.92597684986703e-03dB,-1.72254916736210e+00°)
4.89778819368445e+06	(-4.11091489535949e-03dB,-1.76264746862244e+00°)
5.01187233627271e+06	(-4.30456036199163e-03dB,-1.80367799106519e+00°)
5.12861383991364e+06	(-4.50732280438779e-03dB,-1.84566232118851e+00°)
5.24807460249772e+06	(-4.71963100052451e-03dB,-1.88862253919086e+00°)
5.37031796370252e+06	(-4.94193385016135e-03dB,-1.93258122982154e+00°)
5.49540873857624e+06	(-5.17470131487711e-03dB,-1.97756149343778e+00°)
5.62341325190348e+06	(-5.41842540162096e-03dB,-2.02358695726994e+00°)
5.75439937337156e+06	(-5.67362119175995e-03dB,-2.07068178689638e+00°)
5.88843655355588e+06	(-5.94082791763855e-03dB,-2.11887069792886e+00°)
6.02559586074357e+06	(-6.22061008885385e-03dB,-2.16817896790958e+00°)
6.16595001861481e+06	(-6.51355867046912e-03dB,-2.21863244842046e+00°)
6.30957344480192e+06	(-6.82029231546337e-03dB,-2.27025757740499e+00°)
6.45654229034654e+06	(-7.14145865393570e-03dB,-2.32308139170281e+00°)
6.60693448007595e+06	(-7.47773564152217e-03dB,-2.37713153979654e+00°)
6.76082975391980e+06	(-7.82983296973988e-03dB,-2.43243629477051e+00°)
6.91830970918935e+06	(-8.19849354095636e-03dB,-2.48902456748003e+00°)
7.07945784384136e+06	(-8.58449501092172e-03dB,-2.54692591992988e+00°)
7.24435960074989e+06	(-8.98865140180509e-03dB,-2.60617057886006e+00°)
7.41310241300916e+06	(-9.41181478887474e-03dB,-2.66678944953618e+00°)
7.58577575029182e+06	(-9.85487706406913e-03dB,-2.72881412974154e+00°)
7.76247116628690e+06	(-1.03187717798172e-02dB,-2.79227692396716e+00°)
7.94328234724280e+06	(-1.08044760766281e-02dB,-2.85721085779557e+00°)
8.12830516164097e+06	(-1.13130126981097e-02dB,-2.92364969247308e+00°)
8.31763771102669e+06	(-1.18454520971842e-02dB,-2.99162793966494e+00°)
8.51138038202375e+06	(-1.24029146374652e-02dB,-3.06118087638662e+00°)
8.70963589956079e+06	(-1.29865728938732e-02dB,-3.13234456010369e+00°)
8.91250938133743e+06	(-1.35976540567561e-02dB,-3.20515584399172e+00°)
9.12010839355908e+06	(-1.42374424439016e-02dB,-3.27965239234684e+00°)
9.33254300796989e+06	(-1.49072821250341e-02dB,-3.35587269613590e+00°)
9.54992586021434e+06	(-1.56085796635306e-02dB,-3.43385608867479e+00°)
9.77237220955808e+06	(-1.63428069802487e-02dB,-3.51364276142128e+00°)
9.99999999999998e+06	(-1.71115043445809e-02dB,-3.59527377986817e+00°)
1.02329299228075e+07	(-1.79162834979784e-02dB,-3.67879109952035e+00°)
1.04712854805090e+07	(-1.87588309153721e-02dB,-3.76423758193832e+00°)
1.07151930523760e+07	(-1.96409112101449e-02dB,-3.85165701082861e+00°)
1.09647819614318e+07	(-2.05643706884334e-02dB,-3.94109410815992e+00°)
1.12201845430196e+07	(-2.15311410587516e-02dB,-4.03259455028167e+00°)
1.14815362149688e+07	(-2.25432433031180e-02dB,-4.12620498401976e+00°)
1.17489755493953e+07	(-2.36027917160236e-02dB,-4.22197304272188e+00°)
1.20226443461741e+07	(-2.47119981178206e-02dB,-4.31994736222231e+00°)
1.23026877081238e+07	(-2.58731762491900e-02dB,-4.42017759669376e+00°)
1.25892541179416e+07	(-2.70887463536605e-02dB,-4.52271443435096e+00°)
1.28824955169313e+07	(-2.83612399551802e-02dB,-4.62760961296763e+00°)
1.31825673855640e+07	(-2.96933048380504e-02dB,-4.73491593516568e+00°)
1.34896288259165e+07	(-3.10877102365721e-02dB,-4.84468728343187e+00°)
1.38038426460288e+07	(-3.25473522419918e-02dB,-4.95697863481387e+00°)
1.41253754462275e+07	(-3.40752594344551e-02dB,-5.07184607524367e+00°)
1.44543977074592e+07	(-3.56745987477716e-02dB,-5.18934681343272e+00°)
1.47910838816820e+07	(-3.73486815749729e-02dB,-5.30953919427840e+00°)
1.51356124843620e+07	(-3.91009701227003e-02dB,-5.43248271171750e+00°)
1.54881661891248e+07	(-4.09350840225544e-02dB,-5.55823802095737e+00°)
1.58489319246111e+07	(-4.28548072076163e-02dB,-5.68686695001036e+00°)
1.62181009735892e+07	(-4.48640950623596e-02dB,-5.81843251045210e+00°)
1.65958690743756e+07	(-4.69670818541792e-02dB,-5.95299890731838e+00°)
1.69824365246174e+07	(-4.91680884547578e-02dB,-6.09063154804951e+00°)
1.73780082874937e+07	(-5.14716303594254e-02dB,-6.23139705038509e+00°)
1.77827941003892e+07	(-5.38824260125517e-02dB,-6.37536324910513e+00°)
1.81970085860998e+07	(-5.64054054468323e-02dB,-6.52259920150711e+00°)
1.86208713666286e+07	(-5.90457192442410e-02dB,-6.67317519150083e+00°)
1.90546071796324e+07	(-6.18087478260294e-02dB,-6.82716273219597e+00°)
1.94984459975804e+07	(-6.47001110789151e-02dB,-6.98463456684866e+00°)
1.99526231496887e+07	(-6.77256783242139e-02dB,-7.14566466802578e+00°)
2.04173794466952e+07	(-7.08915786361935e-02dB,-7.31032823483665e+00°)
2.08929613085403e+07	(-7.42042115153458e-02dB,-7.47870168807299e+00°)
2.13796208950223e+07	(-7.76702579217383e-02dB,-7.65086266308871e+00°)
2.18776162394955e+07	(-8.12966916727484e-02dB,-7.82689000024147e+00°)
2.23872113856833e+07	(-8.50907912087429e-02dB,-8.00686373270784e+00°)
2.29086765276777e+07	(-8.90601517292219e-02dB,-8.19086507147383e+00°)
2.34422881531991e+07	(-9.32126977009192e-02dB,-8.37897638729182e+00°)
2.39883291901948e+07	(-9.75566957380725e-02dB,-8.57128118938414e+00°)
2.45470891568502e+07	(-1.02100767853744e-01dB,-8.76786410066251e+00°)
2.51188643150957e+07	(-1.06853905079451e-01dB,-8.96881082922129e+00°)
2.57039578276885e+07	(-1.11825481448761e-01dB,-9.17420813585108e+00°)
2.63026799189537e+07	(-1.17025268338493e-01dB,-9.38414379730773e+00°)
2.69153480392691e+07	(-1.22463449159117e-01dB,-9.59870656506036e+00°)
2.75422870333816e+07	(-1.28150634383644e-01dB,-9.81798611923046e+00°)
2.81838293126444e+07	(-1.34097876901685e-01dB,-1.00420730174230e+01°)
2.88403150312660e+07	(-1.40316687682656e-01dB,-1.02710586381389e+01°)
2.95120922666637e+07	(-1.46819051729000e-01dB,-1.05050351184489e+01°)
3.01995172040200e+07	(-1.53617444297025e-01dB,-1.07440952855960e+01°)
3.09029543251358e+07	(-1.60724847359356e-01dB,-1.09883325821872e+01°)
3.16227766016837e+07	(-1.68154766279123e-01dB,-1.12378409846241e+01°)
3.23593656929627e+07	(-1.75921246661841e-01dB,-1.14927149144147e+01°)
3.31131121482590e+07	(-1.84038891346375e-01dB,-1.17530491420027e+01°)
3.38844156139201e+07	(-1.92522877491628e-01dB,-1.20189386827439e+01°)
3.46736850452530e+07	(-2.01388973710393e-01dB,-1.22904786846573e+01°)
3.54813389233574e+07	(-2.10653557196318e-01dB,-1.25677643075742e+01°)
3.63078054770100e+07	(-2.20333630784086e-01dB,-1.28508905933113e+01°)
3.71535229097171e+07	(-2.30446839876772e-01dB,-1.31399523264949e+01°)
3.80189396320560e+07	(-2.41011489167771e-01dB,-1.34350438856693e+01°)
3.89045144994279e+07	(-2.52046559077885e-01dB,-1.37362590843301e+01°)
3.98107170553496e+07	(-2.63571721820994e-01dB,-1.40436910015372e+01°)
4.07380277804111e+07	(-2.75607357004272e-01dB,-1.43574318017744e+01°)
4.16869383470334e+07	(-2.88174566661194e-01dB,-1.46775725437471e+01°)
4.26579518801591e+07	(-3.01295189607598e-01dB,-1.50042029778305e+01°)
4.36515832240164e+07	(-3.14991815002919e-01dB,-1.53374113319111e+01°)
4.46683592150961e+07	(-3.29287794990366e-01dB,-1.56772840854024e+01°)
4.57088189614873e+07	(-3.44207256281432e-01dB,-1.60239057312524e+01°)
4.67735141287196e+07	(-3.59775110541628e-01dB,-1.63773585258114e+01°)
4.78630092322636e+07	(-3.76017063425994e-01dB,-1.67377222264814e+01°)
4.89778819368444e+07	(-3.92959622104635e-01dB,-1.71050738171306e+01°)
5.01187233627270e+07	(-4.10630101110546e-01dB,-1.74794872213251e+01°)
5.12861383991363e+07	(-4.29056626334273e-01dB,-1.78610330035061e+01°)
5.24807460249770e+07	(-4.48268136982848e-01dB,-1.82497780583291e+01°)
5.37031796370251e+07	(-4.68294385313814e-01dB,-1.86457852884709e+01°)
5.49540873857622e+07	(-4.89165933949357e-01dB,-1.90491132713159e+01°)
5.62341325190347e+07	(-5.10914150570777e-01dB,-1.94598159150422e+01°)
5.75439937337155e+07	(-5.33571199789717e-01dB,-1.98779421047483e+01°)
5.88843655355586e+07	(-5.57170031990180e-01dB,-2.03035353393879e+01°)
6.02559586074355e+07	(-5.81744368934447e-01dB,-2.07366333604174e+01°)
6.16595001861480e+07	(-6.07328685926733e-01dB,-2.11772677732041e+01°)
6.30957344480191e+07	(-6.33958190331205e-01dB,-2.16254636623915e+01°)
6.45654229034653e+07	(-6.61668796245736e-01dB,-2.20812392025781e+01°)
6.60693448007593e+07	(-6.90497095140010e-01dB,-2.25446052658249e+01°)
6.76082975391979e+07	(-7.20480322276344e-01dB,-2.30155650276733e+01°)
6.91830970918933e+07	(-7.51656318743996e-01dB,-2.34941135735220e+01°)
7.07945784384135e+07	(-7.84063488953299e-01dB,-2.39802375073813e+01°)
7.24435960074987e+07	(-8.17740753454386e-01dB,-2.44739145651868e+01°)
7.41310241300914e+07	(-8.52727496967124e-01dB,-2.49751132350205e+01°)
7.58577575029180e+07	(-8.89063511533915e-01dB,-2.54837923867412e+01°)
7.76247116628688e+07	(-9.26788934735710e-01dB,-2.59999009136748e+01°)
7.94328234724278e+07	(-9.65944182943358e-01dB,-2.65233773891508e+01°)
8.12830516164096e+07	(-1.00656987961196e+00dB,-2.70541497407909e+01°)
8.31763771102667e+07	(-1.04870677866439e+00dB,-2.75921349455599e+01°)
8.51138038202373e+07	(-1.09239568305221e+00dB,-2.81372387486670e+01°)
8.70963589956077e+07	(-1.13767735862649e+00dB,-2.86893554094654e+01°)
8.91250938133741e+07	(-1.18459244349893e+00dB,-2.92483674775224e+01°)
9.12010839355906e+07	(-1.23318135312266e+00dB,-2.98141456020318e+01°)
9.33254300796987e+07	(-1.28348418137378e+00dB,-3.03865483777002e+01°)
9.54992586021431e+07	(-1.33554059796687e+00dB,-3.09654222301661e+01°)
9.77237220955806e+07	(-1.38938974259097e+00dB,-3.15506013438956e+01°)
9.99999999999995e+07	(-1.44507011620528e+00dB,-3.21419076353419e+01°)
1.02329299228075e+08	(-1.50261946998575e+00dB,-3.27391507739606e+01°)
1.04712854805089e+08	(-1.56207469246445e+00dB,-3.33421282534287e+01°)
1.07151930523760e+08	(-1.62347169545048e+00dB,-3.39506255151310e+01°)
1.09647819614318e+08	(-1.68684529936640e+00dB,-3.45644161256526e+01°)
1.12201845430196e+08	(-1.75222911867289e+00dB,-3.51832620096436e+01°)
1.14815362149688e+08	(-1.81965544808987e+00dB,-3.58069137390206e+01°)
1.17489755493952e+08	(-1.88915515034978e+00dB,-3.64351108790252e+01°)
1.20226443461741e+08	(-1.96075754624064e+00dB,-3.70675823911883e+01°)
1.23026877081237e+08	(-2.03449030770996e+00dB,-3.77040470927535e+01°)
1.25892541179416e+08	(-2.11037935480568e+00dB,-3.83442141715949e+01°)
1.28824955169313e+08	(-2.18844875722684e+00dB,-3.89877837551367e+01°)
1.31825673855640e+08	(-2.26872064124360e+00dB,-3.96344475312490e+01°)
1.34896288259165e+08	(-2.35121510272380e+00dB,-4.02838894185627e+01°)
1.38038426460288e+08	(-2.43595012697103e+00dB,-4.09357862831265e+01°)
1.41253754462275e+08	(-2.52294151603762e+00dB,-4.15898086978313e+01°)
1.44543977074592e+08	(-2.61220282412542e+00dB,-4.22456217405521e+01°)
1.47910838816820e+08	(-2.70374530162731e+00dB,-4.29028858265260e+01°)
1.51356124843620e+08	(-2.79757784829550e+00dB,-4.35612575700878e+01°)
1.54881661891247e+08	(-2.89370697594753e+00dB,-4.42203906705503e+01°)
1.58489319246110e+08	(-2.99213678104052e+00dB,-4.48799368167266e+01°)
1.62181009735892e+08	(-3.09286892735830e+00dB,-4.55395466043751e+01°)
1.65958690743755e+08	(-3.19590263896654e+00dB,-4.61988704606916e+01°)
1.69824365246173e+08	(-3.30123470349917e+00dB,-4.68575595698908e+01°)
1.73780082874937e+08	(-3.40885948574665e+00dB,-4.75152667939017e+01°)
1.77827941003891e+08	(-3.51876895142400e+00dB,-4.81716475822670e+01°)
1.81970085860997e+08	(-3.63095270090631e+00dB,-4.88263608654582e+01°)
1.86208713666286e+08	(-3.74539801263198e+00dB,-4.94790699260212e+01°)
1.90546071796324e+08	(-3.86208989579123e+00dB,-5.01294432422245e+01°)
1.94984459975803e+08	(-3.98101115184053e+00dB,-5.07771552992045e+01°)
1.99526231496887e+08	(-4.10214244431342e+00dB,-5.14218873629766e+01°)
2.04173794466952e+08	(-4.22546237633568e+00dB,-5.20633282131003e+01°)
2.08929613085403e+08	(-4.35094757519884e+00dB,-5.27011748302462e+01°)
2.13796208950222e+08	(-4.47857278330103e+00dB,-5.33351330354059e+01°)
2.18776162394954e+08	(-4.60831095472873e+00dB,-5.39649180779947e+01°)
2.23872113856833e+08	(-4.74013335672670e+00dB,-5.45902551706281e+01°)
2.29086765276776e+08	(-4.87400967528713e+00dB,-5.52108799688862e+01°)
2.34422881531991e+08	(-5.00990812408211e+00dB,-5.58265389949089e+01°)
2.39883291901947e+08	(-5.14779555596533e+00dB,-5.64369900041899e+01°)
2.45470891568501e+08	(-5.28763757627975e+00dB,-5.70420022954393e+01°)
2.51188643150956e+08	(-5.42939865722652e+00dB,-5.76413569638676e+01°)
2.57039578276885e+08	(-5.57304225257635e+00dB,-5.82348470986973e+01°)
2.63026799189536e+08	(-5.71853091203683e+00dB,-5.88222779261265e+01°)
2.69153480392690e+08	(-5.86582639462728e+00dB,-5.94034668993517e+01°)
2.75422870333815e+08	(-6.01488978045529e+00dB,-5.99782437376010e+01°)
2.81838293126444e+08	(-6.16568158033568e+00dB,-6.05464504164262e+01°)
2.88403150312659e+08	(-6.31816184274214e+00dB,-6.11079411117627e+01°)
2.95120922666637e+08	(-6.47229025763301e+00dB,-6.16625821004770e+01°)
3.01995172040200e+08	(-6.62802625674568e+00dB,-6.22102516202961e+01°)
3.09029543251357e+08	(-6.78532911000688e+00dB,-6.27508396921371e+01°)
3.16227766016836e+08	(-6.94415801775896e+00dB,-6.32842479079492e+01°)
3.23593656929626e+08	(-7.10447219855411e+00dB,-6.38103891872284e+01°)
3.31131121482589e+08	(-7.26623097231856e+00dB,-6.43291875053805e+01°)
3.38844156139200e+08	(-7.42939383873717e+00dB,-6.48405775970929e+01°)
3.46736850452529e+08	(-7.59392055075414e+00dB,-6.53445046378283e+01°)
3.54813389233573e+08	(-7.75977118312906e+00dB,-6.58409239064812e+01°)
3.63078054770099e+08	(-7.92690619602671e+00dB,-6.63298004321431e+01°)
3.71535229097170e+08	(-8.09528649365606e+00dB,-6.68111086278092e+01°)
3.80189396320559e+08	(-8.26487347800697e+00dB,-6.72848319137268e+01°)
3.89045144994278e+08	(-8.43562909776280e+00dB,-6.77509623329436e+01°)
3.98107170553495e+08	(-8.60751589249374e+00dB,-6.82095001614600e+01°)
4.07380277804110e+08	(-8.78049703225827e+00dB,-6.86604535152295e+01°)
4.16869383470333e+08	(-8.95453635276039e+00dB,-6.91038379560842e+01°)
4.26579518801590e+08	(-9.12959838622623e+00dB,-6.95396760984966e+01°)
4.36515832240163e+08	(-9.30564838817771e+00dB,-6.99679972189200e+01°)
4.46683592150960e+08	(-9.48265236029124e+00dB,-7.03888368692821e+01°)
4.57088189614872e+08	(-9.66057706953787e+00dB,-7.08022364960475e+01°)
4.67735141287195e+08	(-9.83939006380668e+00dB,-7.12082430660998e+01°)
4.78630092322635e+08	(-1.00190596842168e+01dB,-7.16069087005485e+01°)
4.89778819368443e+08	(-1.01995550743250e+01dB,-7.19982903174131e+01°)
5.01187233627269e+08	(-1.03808461864352e+01dB,-7.23824492840033e+01°)
5.12861383991361e+08	(-1.05629037852148e+01dB,-7.27594510796801e+01°)
5.24807460249769e+08	(-1.07456994488183e+01dB,-7.31293649695614e+01°)
5.37031796370249e+08	(-1.09292055677166e+01dB,-7.34922636896224e+01°)
5.49540873857621e+08	(-1.11133953414213e+01dB,-7.38482231435338e+01°)
5.62341325190345e+08	(-1.12982427732914e+01dB,-7.41973221114861e+01°)
5.75439937337153e+08	(-1.14837226635983e+01dB,-7.45396419711596e+01°)
5.88843655355585e+08	(-1.16698106010209e+01dB,-7.48752664309179e+01°)
6.02559586074353e+08	(-1.18564829527340e+01dB,-7.52042812752342e+01°)
6.16595001861478e+08	(-1.20437168532424e+01dB,-7.55267741222926e+01°)
6.30957344480189e+08	(-1.22314901921096e+01dB,-7.58428341936502e+01°)
