time	V(vin)	V(vout)
0.000000000000000e+00	0.000000e+00	3.245016e+00
1.159419644994030e-05	7.369970e-04	3.238656e+00
2.318839289988059e-05	1.460769e-03	3.232413e+00
3.478258934982088e-05	2.171315e-03	3.226288e+00
4.637678579976118e-05	2.868635e-03	3.220281e+00
5.797098224970148e-05	3.552730e-03	3.214392e+00
6.956517869964177e-05	4.223600e-03	3.208620e+00
8.115937514958204e-05	4.881244e-03	3.202966e+00
1.104562501495820e-04	6.396302e-03	3.189963e+00
1.397531251495820e-04	7.695236e-03	3.178854e+00
1.592843751495820e-04	8.419101e-03	3.172690e+00
1.788156251495821e-04	9.016335e-03	3.167631e+00
1.983468751495821e-04	9.477955e-03	3.163756e+00
2.178781251495821e-04	9.797018e-03	3.161123e+00
2.374093751495821e-04	9.968725e-03	3.159772e+00
2.569406251495821e-04	9.990493e-03	3.159724e+00
2.764718751495821e-04	9.861995e-03	3.160980e+00
2.960031251495821e-04	9.585162e-03	3.163521e+00
3.155343751495822e-04	9.164160e-03	3.167307e+00
3.350656251495822e-04	8.605321e-03	3.172281e+00
3.545968751495822e-04	7.917049e-03	3.178366e+00
3.838937501495822e-04	6.665097e-03	3.189372e+00
4.131906251495822e-04	5.187938e-03	3.202289e+00
4.424875001495823e-04	3.535483e-03	3.216678e+00
4.717843751495823e-04	1.763568e-03	3.232047e+00
4.829450894352966e-04	1.060962e-03	3.238126e+00
4.941058037210109e-04	3.616848e-04	3.244167e+00
5.052665180067252e-04	-3.342623e-04	3.250172e+00
5.164272322924395e-04	-1.026880e-03	3.256139e+00
5.275879465781538e-04	-1.716167e-03	3.262070e+00
5.387486608638680e-04	-2.402126e-03	3.267964e+00
5.499093751495823e-04	-3.084754e-03	3.273820e+00
5.792062501495823e-04	-4.773773e-03	3.288272e+00
6.085031251495824e-04	-6.301491e-03	3.301288e+00
6.378000001495824e-04	-7.616288e-03	3.312432e+00
6.573312501495824e-04	-8.352248e-03	3.318635e+00
6.768625001495824e-04	-8.962582e-03	3.323748e+00
6.963937501495824e-04	-9.438111e-03	3.327695e+00
7.159250001495825e-04	-9.771681e-03	3.330418e+00
7.354562501495825e-04	-9.958277e-03	3.331877e+00
7.549875001495825e-04	-9.995090e-03	3.332049e+00
7.745187501495825e-04	-9.881568e-03	3.330934e+00
7.940500001495825e-04	-9.619419e-03	3.328546e+00
8.135812501495825e-04	-9.212584e-03	3.324921e+00
8.331125001495826e-04	-8.667183e-03	3.320114e+00
8.526437501495826e-04	-7.991420e-03	3.314193e+00
8.819406251495826e-04	-6.756079e-03	3.303423e+00
9.112375001495826e-04	-5.292457e-03	3.290709e+00
9.405343751495827e-04	-3.650007e-03	3.276476e+00
9.698312501495827e-04	-1.884227e-03	3.261201e+00
9.809919644352969e-04	-1.182889e-03	3.255141e+00
9.921526787210113e-04	-4.842823e-04	3.249107e+00
1.003313393006726e-03	2.115940e-04	3.243099e+00
1.014474107292440e-03	9.047394e-04	3.237118e+00
1.025634821578154e-03	1.595154e-03	3.231164e+00
1.036795535863869e-03	2.282838e-03	3.225237e+00
1.047956250149583e-03	2.967791e-03	3.219336e+00
1.077253125149583e-03	4.665584e-03	3.204728e+00
1.106550000149583e-03	6.205732e-03	3.191506e+00
1.135846875149583e-03	7.536193e-03	3.180121e+00
1.155378125149583e-03	8.284137e-03	3.173747e+00
1.174909375149583e-03	8.907478e-03	3.168460e+00
1.194440625149583e-03	9.396845e-03	3.164343e+00
1.213971875149583e-03	9.744872e-03	3.161458e+00
1.233503125149583e-03	9.946329e-03	3.159848e+00
1.253034375149583e-03	9.998183e-03	3.159539e+00
1.272565625149583e-03	9.899654e-03	3.160536e+00
1.292096875149583e-03	9.652227e-03	3.162822e+00
1.311628125149583e-03	9.259621e-03	3.166363e+00
1.331159375149583e-03	8.727740e-03	3.171105e+00
1.350690625149583e-03	8.064588e-03	3.176976e+00
1.379987500149583e-03	6.846044e-03	3.187696e+00
1.409284375149583e-03	5.396178e-03	3.200383e+00
1.438581250149583e-03	3.763981e-03	3.214603e+00
1.467878125149583e-03	2.004603e-03	3.229872e+00
1.479038839435297e-03	1.304639e-03	3.235931e+00
1.490199553721012e-03	6.068068e-04	3.241963e+00
1.501360268006726e-03	-8.889382e-05	3.247968e+00
1.512520982292440e-03	-7.824629e-04	3.253947e+00
1.523681696578155e-03	-1.473900e-03	3.259899e+00
1.534842410863869e-03	-2.163206e-03	3.265825e+00
1.546003125149583e-03	-2.850381e-03	3.271724e+00
1.575300000149583e-03	-4.556692e-03	3.286332e+00
1.604596875149583e-03	-6.109037e-03	3.299565e+00
1.633893750149583e-03	-7.454963e-03	3.310982e+00
1.653425000149583e-03	-8.214778e-03	3.317393e+00
1.672956250149583e-03	-8.851035e-03	3.322731e+00
1.692487500149583e-03	-9.354163e-03	3.326916e+00
1.712018750149583e-03	-9.716596e-03	3.329888e+00
1.731550000149583e-03	-9.932882e-03	3.331602e+00
1.751081250149583e-03	-9.999769e-03	3.332033e+00
1.770612500149583e-03	-9.916251e-03	3.331174e+00
1.790143750149583e-03	-9.683581e-03	3.329039e+00
1.809675000149583e-03	-9.305263e-03	3.325658e+00
1.829206250149583e-03	-8.786984e-03	3.321082e+00
1.848737500149583e-03	-8.136541e-03	3.315378e+00
1.878034375149583e-03	-6.934977e-03	3.304895e+00
1.907331250149584e-03	-5.499087e-03	3.292418e+00
1.936628125149584e-03	-3.877388e-03	3.278361e+00
1.965925000149583e-03	-2.124676e-03	3.263196e+00
1.977085714435297e-03	-1.426192e-03	3.257159e+00
1.988246428721011e-03	-7.292399e-04	3.251138e+00
1.999407143006725e-03	-3.381978e-05	3.245134e+00
2.010567857292440e-03	6.600685e-04	3.239145e+00
2.021728571578154e-03	1.352425e-03	3.233174e+00
2.032889285863868e-03	2.043249e-03	3.227218e+00
2.044050000149582e-03	2.732542e-03	3.221279e+00
2.073346875149581e-03	4.447114e-03	3.206523e+00
2.102643750149580e-03	6.011423e-03	3.193089e+00
2.131940625149580e-03	7.372611e-03	3.181435e+00
2.151471875149579e-03	8.144182e-03	3.174854e+00
2.171003125149579e-03	8.793256e-03	3.169343e+00
2.190534375149579e-03	9.310072e-03	3.164987e+00
2.210065625149578e-03	9.686857e-03	3.161851e+00
2.229596875149578e-03	9.917941e-03	3.159984e+00
2.249128125149577e-03	9.999850e-03	3.159414e+00
2.268659375149577e-03	9.931352e-03	3.160150e+00
2.288190625149576e-03	9.713477e-03	3.162181e+00
2.307721875149576e-03	9.349504e-03	3.165475e+00
2.327253125149576e-03	8.844904e-03	3.169982e+00
2.346784375149575e-03	8.207269e-03	3.175634e+00
2.376081250149575e-03	7.022867e-03	3.186063e+00
2.405378125149574e-03	5.601168e-03	3.198512e+00
2.434675000149573e-03	3.990212e-03	3.212555e+00
2.463971875149573e-03	2.244430e-03	3.227713e+00
2.475132589435287e-03	1.547530e-03	3.233749e+00
2.486293303721001e-03	8.515632e-04	3.239768e+00
2.497454018006715e-03	1.565282e-04	3.245770e+00
2.508614732292429e-03	-5.375747e-04	3.251757e+00
2.519775446578143e-03	-1.230746e-03	3.257727e+00
2.530936160863857e-03	-1.922984e-03	3.263681e+00
2.542096875149571e-03	-2.614291e-03	3.269618e+00
2.571393750149570e-03	-4.336866e-03	3.284373e+00
2.600690625149570e-03	-5.912903e-03	3.297817e+00
2.629987500149569e-03	-7.289148e-03	3.309500e+00
2.649518750149569e-03	-8.072359e-03	3.316115e+00
2.669050000149568e-03	-8.734155e-03	3.321674e+00
2.688581250149568e-03	-9.264580e-03	3.326096e+00
2.708112500149568e-03	-9.655658e-03	3.329315e+00
2.727643750149567e-03	-9.901505e-03	3.331283e+00
2.747175000149567e-03	-9.998425e-03	3.331972e+00
2.766706250149566e-03	-9.944959e-03	3.331371e+00
2.786237500149566e-03	-9.741911e-03	3.329489e+00
2.805768750149565e-03	-9.392336e-03	3.326354e+00
2.825300000149565e-03	-8.901492e-03	3.322012e+00
2.844831250149565e-03	-8.276761e-03	3.316528e+00
2.864362500149564e-03	-7.527540e-03	3.309981e+00
2.893659375149564e-03	-6.195410e-03	3.298387e+00
2.922956250149563e-03	-4.653944e-03	3.285011e+00
2.952253125149562e-03	-2.955226e-03	3.270302e+00
2.963413839435276e-03	-2.270029e-03	3.264376e+00
2.974574553720990e-03	-1.582167e-03	3.258430e+00
2.985735268006704e-03	-8.916375e-04	3.252464e+00
2.996895982292419e-03	-1.984417e-04	3.246478e+00
3.008056696578133e-03	4.974207e-04	3.240472e+00
3.019217410863847e-03	1.195950e-03	3.234446e+00
3.030378125149561e-03	1.897145e-03	3.228400e+00
3.059675000149560e-03	3.662251e-03	3.213197e+00
3.088971875149559e-03	5.303614e-03	3.199087e+00
3.118268750149559e-03	6.765772e-03	3.186548e+00
3.147565625149558e-03	7.999321e-03	3.176011e+00
3.167096875149558e-03	8.673738e-03	3.170279e+00
3.186628125149557e-03	9.217693e-03	3.165686e+00
3.206159375149557e-03	9.623005e-03	3.162302e+00
3.225690625149556e-03	9.883579e-03	3.160178e+00
3.245221875149556e-03	9.995494e-03	3.159348e+00
3.264753125149556e-03	9.957068e-03	3.159823e+00
3.284284375149555e-03	9.768877e-03	3.161597e+00
3.303815625149555e-03	9.433755e-03	3.164642e+00
3.323346875149554e-03	8.956740e-03	3.168911e+00
3.342878125149554e-03	8.345006e-03	3.174340e+00
3.362409375149554e-03	7.607757e-03	3.180846e+00
3.391706250149553e-03	6.291271e-03	3.192402e+00
3.421003125149552e-03	4.762209e-03	3.205758e+00
3.450300000149552e-03	3.072237e-03	3.220459e+00
3.461460714435266e-03	2.389355e-03	3.226383e+00
3.472621428720980e-03	1.703207e-03	3.232327e+00
3.483782143006694e-03	1.013793e-03	3.238291e+00
3.494942857292408e-03	3.211143e-04	3.244276e+00
3.506103571578122e-03	-3.748302e-04	3.250280e+00
3.517264285863836e-03	-1.074040e-03	3.256304e+00
3.528425000149550e-03	-1.776516e-03	3.262348e+00
3.557721875149549e-03	-3.547786e-03	3.277548e+00
3.587018750149549e-03	-5.199180e-03	3.291663e+00
3.616315625149548e-03	-6.674899e-03	3.304221e+00
3.645612500149548e-03	-7.925079e-03	3.314801e+00
3.665143750149547e-03	-8.612014e-03	3.320579e+00
3.684675000149547e-03	-9.169417e-03	3.325234e+00
3.704206250149546e-03	-9.588904e-03	3.328698e+00
3.723737500149546e-03	-9.864164e-03	3.330919e+00
3.743268750149545e-03	-9.991057e-03	3.331866e+00
3.762800000149545e-03	-9.967676e-03	3.331523e+00
3.782331250149545e-03	-9.794373e-03	3.329895e+00
3.801862500149544e-03	-9.473752e-03	3.327008e+00
3.821393750149544e-03	-9.010638e-03	3.322903e+00
3.840925000149543e-03	-8.411995e-03	3.317641e+00
3.860456250149543e-03	-7.686828e-03	3.311300e+00
3.889753125149542e-03	-6.386184e-03	3.299973e+00
3.919050000149542e-03	-4.869758e-03	3.286811e+00
3.948346875149542e-03	-3.188787e-03	3.272252e+00
3.977643750149541e-03	-1.400070e-03	3.256785e+00
3.988804464435255e-03	-6.942933e-04	3.250688e+00
3.999965178720969e-03	6.360420e-06	3.244639e+00
4.011125893006683e-03	7.018912e-04	3.238637e+00
4.022286607292397e-03	1.392299e-03	3.232682e+00
4.033447321578111e-03	2.077584e-03	3.226774e+00
4.044608035863825e-03	2.757746e-03	3.220914e+00
4.055768750149539e-03	3.432786e-03	3.215102e+00
4.085065625149539e-03	5.093963e-03	3.200817e+00
4.114362500149538e-03	6.583020e-03	3.188043e+00
4.143659375149537e-03	7.849643e-03	3.177217e+00
4.163190625149537e-03	8.548995e-03	3.171267e+00
4.182721875149537e-03	9.119761e-03	3.166440e+00
4.202253125149536e-03	9.553358e-03	3.162809e+00
4.221784375149536e-03	9.843263e-03	3.160430e+00
4.241315625149535e-03	9.985116e-03	3.159340e+00
4.260846875149535e-03	9.976785e-03	3.159554e+00
4.280378125149534e-03	9.818393e-03	3.161070e+00
4.299909375149534e-03	9.512323e-03	3.163864e+00
4.319440625149534e-03	9.063180e-03	3.167893e+00
4.338971875149533e-03	8.477717e-03	3.173097e+00
4.358503125149533e-03	7.764741e-03	3.179394e+00
4.387800000149532e-03	6.480135e-03	3.190679e+00
4.417096875149532e-03	4.976572e-03	3.203821e+00
4.446393750149531e-03	3.304856e-03	3.218370e+00
4.475690625149530e-03	1.521471e-03	3.233832e+00
4.486851339435245e-03	8.166451e-04	3.239927e+00
4.498012053720958e-03	1.163450e-04	3.245975e+00
4.509172768006673e-03	-5.794294e-04	3.251976e+00
4.520333482292386e-03	-1.270678e-03	3.257929e+00
4.531494196578101e-03	-1.957401e-03	3.263835e+00
4.542654910863814e-03	-2.639598e-03	3.269694e+00
4.553815625149529e-03	-3.317269e-03	3.275506e+00
4.583112500149528e-03	-4.987979e-03	3.289794e+00
4.612409375149527e-03	-6.490150e-03	3.302585e+00
4.641706250149527e-03	-7.773024e-03	3.313451e+00
4.661237500149526e-03	-8.484687e-03	3.319444e+00
4.680768750149526e-03	-9.068731e-03	3.324330e+00
4.700300000149525e-03	-9.516373e-03	3.328037e+00
4.719831250149525e-03	-9.820880e-03	3.330510e+00
4.739362500149525e-03	-9.977672e-03	3.331713e+00
4.758893750149524e-03	-9.984391e-03	3.331628e+00
4.778425000149524e-03	-9.840935e-03	3.330257e+00
4.797956250149523e-03	-9.549461e-03	3.327619e+00
4.817487500149523e-03	-9.114356e-03	3.323753e+00
4.837018750149523e-03	-8.542161e-03	3.318717e+00
4.856550000149522e-03	-7.841486e-03	3.312584e+00
4.885846875149522e-03	-6.573111e-03	3.301533e+00
4.915143750149521e-03	-5.082638e-03	3.288591e+00
4.944440625149520e-03	-3.420427e-03	3.274191e+00
4.973737500149520e-03	-1.642643e-03	3.258816e+00
4.984898214435234e-03	-9.388741e-04	3.252736e+00
4.996058928720948e-03	-2.390329e-04	3.246692e+00
5.007219643006662e-03	4.568802e-04	3.240686e+00
5.018380357292376e-03	1.148865e-03	3.234716e+00
5.029541071578090e-03	1.836922e-03	3.228784e+00
5.040701785863804e-03	2.521052e-03	3.222888e+00
5.051862500149518e-03	3.201253e-03	3.217030e+00
5.081159375149517e-03	4.881244e-03	3.202579e+00
5.110456250149517e-03	6.396302e-03	3.189578e+00
5.139753125149516e-03	7.695236e-03	3.178469e+00
5.159284375149516e-03	8.419101e-03	3.172305e+00
5.178815625149515e-03	9.016335e-03	3.167248e+00
5.198346875149515e-03	9.477955e-03	3.163373e+00
5.217878125149514e-03	9.797018e-03	3.160740e+00
5.237409375149514e-03	9.968725e-03	3.159390e+00
5.256940625149514e-03	9.990493e-03	3.159343e+00
5.276471875149513e-03	9.861995e-03	3.160599e+00
5.296003125149513e-03	9.585162e-03	3.163141e+00
5.315534375149512e-03	9.164160e-03	3.166927e+00
5.335065625149512e-03	8.605321e-03	3.171902e+00
5.354596875149512e-03	7.917049e-03	3.177988e+00
5.383893750149511e-03	6.665097e-03	3.188995e+00
5.413190625149510e-03	5.187938e-03	3.201914e+00
5.442487500149510e-03	3.535483e-03	3.216303e+00
5.471784375149509e-03	1.763568e-03	3.231674e+00
5.482945089435223e-03	1.060962e-03	3.237753e+00
5.494105803720937e-03	3.616848e-04	3.243795e+00
5.505266518006651e-03	-3.342623e-04	3.249800e+00
5.516427232292365e-03	-1.026880e-03	3.255768e+00
5.527587946578079e-03	-1.716167e-03	3.261699e+00
5.538748660863793e-03	-2.402126e-03	3.267594e+00
5.549909375149507e-03	-3.084754e-03	3.273451e+00
5.579206250149507e-03	-4.773773e-03	3.287904e+00
5.608503125149506e-03	-6.301491e-03	3.300921e+00
5.637800000149506e-03	-7.616288e-03	3.312066e+00
5.657331250149505e-03	-8.352248e-03	3.318270e+00
5.676862500149505e-03	-8.962582e-03	3.323384e+00
5.696393750149504e-03	-9.438111e-03	3.327332e+00
5.715925000149504e-03	-9.771681e-03	3.330055e+00
5.735456250149503e-03	-9.958277e-03	3.331515e+00
5.754987500149503e-03	-9.995090e-03	3.331688e+00
5.774518750149503e-03	-9.881568e-03	3.330573e+00
5.794050000149502e-03	-9.619419e-03	3.328186e+00
5.813581250149502e-03	-9.212584e-03	3.324562e+00
5.833112500149501e-03	-8.667183e-03	3.319754e+00
5.852643750149501e-03	-7.991420e-03	3.313834e+00
5.881940625149500e-03	-6.756079e-03	3.303065e+00
5.911237500149500e-03	-5.292457e-03	3.290351e+00
5.940534375149499e-03	-3.650007e-03	3.276119e+00
5.969831250149498e-03	-1.884227e-03	3.260844e+00
5.980991964435213e-03	-1.182889e-03	3.254784e+00
5.992152678720926e-03	-4.842823e-04	3.248750e+00
6.003313393006641e-03	2.115940e-04	3.242743e+00
6.014474107292354e-03	9.047394e-04	3.236762e+00
6.025634821578069e-03	1.595154e-03	3.230808e+00
6.036795535863782e-03	2.282838e-03	3.224881e+00
6.047956250149497e-03	2.967791e-03	3.218981e+00
6.077253125149496e-03	4.665584e-03	3.204373e+00
6.106550000149496e-03	6.205732e-03	3.191152e+00
6.135846875149495e-03	7.536193e-03	3.179767e+00
6.155378125149494e-03	8.284137e-03	3.173393e+00
6.174909375149494e-03	8.907478e-03	3.168107e+00
6.194440625149494e-03	9.396845e-03	3.163990e+00
6.213971875149493e-03	9.744872e-03	3.161106e+00
6.233503125149493e-03	9.946329e-03	3.159497e+00
6.253034375149492e-03	9.998183e-03	3.159189e+00
6.272565625149492e-03	9.899654e-03	3.160186e+00
6.292096875149492e-03	9.652227e-03	3.162472e+00
6.311628125149491e-03	9.259621e-03	3.166014e+00
6.331159375149491e-03	8.727740e-03	3.170757e+00
6.350690625149490e-03	8.064588e-03	3.176628e+00
6.379987500149490e-03	6.846044e-03	3.187350e+00
6.409284375149489e-03	5.396178e-03	3.200038e+00
6.438581250149488e-03	3.763981e-03	3.214259e+00
6.467878125149488e-03	2.004603e-03	3.229529e+00
6.479038839435202e-03	1.304639e-03	3.235588e+00
6.490199553720916e-03	6.068068e-04	3.241621e+00
6.501360268006630e-03	-8.889382e-05	3.247627e+00
6.512520982292344e-03	-7.824629e-04	3.253606e+00
6.523681696578058e-03	-1.473900e-03	3.259559e+00
6.534842410863772e-03	-2.163206e-03	3.265485e+00
6.546003125149486e-03	-2.850381e-03	3.271384e+00
6.575300000149486e-03	-4.556692e-03	3.285993e+00
6.604596875149485e-03	-6.109037e-03	3.299228e+00
6.633893750149484e-03	-7.454963e-03	3.310646e+00
6.653425000149484e-03	-8.214778e-03	3.317058e+00
6.672956250149483e-03	-8.851035e-03	3.322396e+00
6.692487500149483e-03	-9.354163e-03	3.326582e+00
6.712018750149483e-03	-9.716596e-03	3.329555e+00
6.731550000149482e-03	-9.932882e-03	3.331270e+00
6.751081250149482e-03	-9.999769e-03	3.331701e+00
6.770612500149481e-03	-9.916251e-03	3.330843e+00
6.790143750149481e-03	-9.683581e-03	3.328708e+00
6.809675000149481e-03	-9.305263e-03	3.325328e+00
6.829206250149480e-03	-8.786984e-03	3.320752e+00
6.848737500149480e-03	-8.136541e-03	3.315048e+00
6.878034375149479e-03	-6.934977e-03	3.304566e+00
6.907331250149478e-03	-5.499087e-03	3.292089e+00
6.936628125149478e-03	-3.877388e-03	3.278032e+00
6.965925000149477e-03	-2.124676e-03	3.262868e+00
6.977085714435192e-03	-1.426192e-03	3.256831e+00
6.988246428720905e-03	-7.292399e-04	3.250810e+00
6.999407143006620e-03	-3.381973e-05	3.244806e+00
7.010567857292333e-03	6.600685e-04	3.238818e+00
7.021728571578048e-03	1.352425e-03	3.232846e+00
7.032889285863761e-03	2.043249e-03	3.226891e+00
7.044050000149476e-03	2.732541e-03	3.220952e+00
7.073346875149475e-03	4.447114e-03	3.206197e+00
7.102643750149474e-03	6.011423e-03	3.192763e+00
7.131940625149474e-03	7.372611e-03	3.181109e+00
7.151471875149473e-03	8.144182e-03	3.174529e+00
7.171003125149473e-03	8.793256e-03	3.169019e+00
7.190534375149472e-03	9.310072e-03	3.164663e+00
7.210065625149472e-03	9.686857e-03	3.161528e+00
7.229596875149472e-03	9.917941e-03	3.159661e+00
7.249128125149471e-03	9.999850e-03	3.159092e+00
7.268659375149471e-03	9.931352e-03	3.159828e+00
7.288190625149470e-03	9.713477e-03	3.161859e+00
7.307721875149470e-03	9.349504e-03	3.165154e+00
7.327253125149469e-03	8.844904e-03	3.169662e+00
7.346784375149469e-03	8.207269e-03	3.175314e+00
7.376081250149468e-03	7.022867e-03	3.185745e+00
7.405378125149468e-03	5.601168e-03	3.198195e+00
7.434675000149467e-03	3.990212e-03	3.212239e+00
7.463971875149467e-03	2.244430e-03	3.227398e+00
7.475132589435181e-03	1.547530e-03	3.233434e+00
7.486293303720895e-03	8.515632e-04	3.239453e+00
7.497454018006609e-03	1.565282e-04	3.245456e+00
7.508614732292323e-03	-5.375747e-04	3.251443e+00
7.519775446578037e-03	-1.230746e-03	3.257414e+00
7.530936160863750e-03	-1.922984e-03	3.263368e+00
7.542096875149465e-03	-2.614291e-03	3.269306e+00
7.571393750149464e-03	-4.336866e-03	3.284062e+00
7.600690625149464e-03	-5.912903e-03	3.297507e+00
7.629987500149463e-03	-7.289148e-03	3.309191e+00
7.649518750149463e-03	-8.072359e-03	3.315807e+00
7.669050000149462e-03	-8.734155e-03	3.321367e+00
7.688581250149462e-03	-9.264580e-03	3.325789e+00
7.708112500149461e-03	-9.655658e-03	3.329009e+00
7.727643750149461e-03	-9.901505e-03	3.330977e+00
7.747175000149461e-03	-9.998425e-03	3.331666e+00
7.766706250149460e-03	-9.944959e-03	3.331066e+00
7.786237500149460e-03	-9.741911e-03	3.329185e+00
7.805768750149459e-03	-9.392336e-03	3.326050e+00
7.825300000149459e-03	-8.901492e-03	3.321709e+00
7.844831250149458e-03	-8.276761e-03	3.316224e+00
7.864362500149458e-03	-7.527540e-03	3.309678e+00
7.893659375149457e-03	-6.195410e-03	3.298084e+00
7.922956250149457e-03	-4.653944e-03	3.284709e+00
7.952253125149456e-03	-2.955226e-03	3.270000e+00
7.963413839435170e-03	-2.270029e-03	3.264074e+00
7.974574553720885e-03	-1.582167e-03	3.258128e+00
