Freq.	1/Ie(Q1)
1.00000000000000e-03	-1.01604360566129e+03,-0.00000000000000e+00
1.02329299228075e-03	-1.01604360566129e+03,-0.00000000000000e+00
1.04712854805090e-03	-1.01604360566129e+03,-0.00000000000000e+00
1.07151930523761e-03	-1.01604360566129e+03,-0.00000000000000e+00
1.09647819614318e-03	-1.01604360566129e+03,-0.00000000000000e+00
1.12201845430196e-03	-1.01604360566129e+03,-0.00000000000000e+00
1.14815362149688e-03	-1.01604360566129e+03,-0.00000000000000e+00
1.17489755493953e-03	-1.01604360566129e+03,-0.00000000000000e+00
1.20226443461741e-03	-1.01604360566129e+03,-0.00000000000000e+00
1.23026877081238e-03	-1.01604360566129e+03,-0.00000000000000e+00
1.25892541179417e-03	-1.01604360566129e+03,-0.00000000000000e+00
1.28824955169313e-03	-1.01604360566129e+03,-0.00000000000000e+00
1.31825673855641e-03	-1.01604360566129e+03,-0.00000000000000e+00
1.34896288259165e-03	-1.01604360566129e+03,-0.00000000000000e+00
1.38038426460288e-03	-1.01604360566129e+03,-0.00000000000000e+00
1.41253754462275e-03	-1.01604360566129e+03,-0.00000000000000e+00
1.44543977074593e-03	-1.01604360566129e+03,-0.00000000000000e+00
1.47910838816821e-03	-1.01604360566129e+03,-0.00000000000000e+00
1.51356124843621e-03	-1.01604360566129e+03,-0.00000000000000e+00
1.54881661891248e-03	-1.01604360566129e+03,-0.00000000000000e+00
1.58489319246111e-03	-1.01604360566129e+03,-0.00000000000000e+00
1.62181009735893e-03	-1.01604360566129e+03,-0.00000000000000e+00
1.65958690743756e-03	-1.01604360566129e+03,-0.00000000000000e+00
1.69824365246174e-03	-1.01604360566129e+03,-0.00000000000000e+00
1.73780082874937e-03	-1.01604360566129e+03,-0.00000000000000e+00
1.77827941003892e-03	-1.01604360566129e+03,-0.00000000000000e+00
1.81970085860998e-03	-1.01604360566129e+03,-0.00000000000000e+00
1.86208713666287e-03	-1.01604360566129e+03,-0.00000000000000e+00
1.90546071796324e-03	-1.01604360566129e+03,-0.00000000000000e+00
1.94984459975804e-03	-1.01604360566129e+03,-0.00000000000000e+00
1.99526231496888e-03	-1.01604360566129e+03,-0.00000000000000e+00
2.04173794466953e-03	-1.01604360566129e+03,-0.00000000000000e+00
2.08929613085404e-03	-1.01604360566129e+03,-0.00000000000000e+00
2.13796208950223e-03	-1.01604360566129e+03,-0.00000000000000e+00
2.18776162394955e-03	-1.01604360566129e+03,-0.00000000000000e+00
2.23872113856834e-03	-1.01604360566129e+03,-0.00000000000000e+00
2.29086765276777e-03	-1.01604360566129e+03,-0.00000000000000e+00
2.34422881531992e-03	-1.01604360566129e+03,-0.00000000000000e+00
2.39883291901949e-03	-1.01604360566129e+03,-0.00000000000000e+00
2.45470891568503e-03	-1.01604360566129e+03,-0.00000000000000e+00
2.51188643150958e-03	-1.01604360566129e+03,-0.00000000000000e+00
2.57039578276886e-03	-1.01604360566129e+03,-0.00000000000000e+00
2.63026799189538e-03	-1.01604360566129e+03,-0.00000000000000e+00
2.69153480392691e-03	-1.01604360566129e+03,-0.00000000000000e+00
2.75422870333816e-03	-1.01604360566129e+03,-0.00000000000000e+00
2.81838293126445e-03	-1.01604360566129e+03,-0.00000000000000e+00
2.88403150312660e-03	-1.01604360566129e+03,-0.00000000000000e+00
2.95120922666638e-03	-1.01604360566129e+03,-0.00000000000000e+00
3.01995172040201e-03	-1.01604360566129e+03,-0.00000000000000e+00
3.09029543251358e-03	-1.01604360566129e+03,-0.00000000000000e+00
3.16227766016837e-03	-1.01604360566129e+03,-0.00000000000000e+00
3.23593656929628e-03	-1.01604360566129e+03,-0.00000000000000e+00
3.31131121482590e-03	-1.01604360566129e+03,-0.00000000000000e+00
3.38844156139202e-03	-1.01604360566129e+03,-0.00000000000000e+00
3.46736850452531e-03	-1.01604360566129e+03,-0.00000000000000e+00
3.54813389233575e-03	-1.01604360566129e+03,-0.00000000000000e+00
3.63078054770101e-03	-1.01604360566129e+03,-0.00000000000000e+00
3.71535229097172e-03	-1.01604360566129e+03,-0.00000000000000e+00
3.80189396320560e-03	-1.01604360566129e+03,-0.00000000000000e+00
3.89045144994280e-03	-1.01604360566129e+03,-0.00000000000000e+00
3.98107170553496e-03	-1.01604360566129e+03,-0.00000000000000e+00
4.07380277804112e-03	-1.01604360566129e+03,-0.00000000000000e+00
4.16869383470334e-03	-1.01604360566129e+03,-0.00000000000000e+00
4.26579518801592e-03	-1.01604360566129e+03,-0.00000000000000e+00
4.36515832240165e-03	-1.01604360566129e+03,-0.00000000000000e+00
4.46683592150962e-03	-1.01604360566129e+03,-0.00000000000000e+00
4.57088189614874e-03	-1.01604360566129e+03,-0.00000000000000e+00
4.67735141287197e-03	-1.01604360566129e+03,-0.00000000000000e+00
4.78630092322637e-03	-1.01604360566129e+03,-0.00000000000000e+00
4.89778819368445e-03	-1.01604360566129e+03,-0.00000000000000e+00
5.01187233627271e-03	-1.01604360566129e+03,-0.00000000000000e+00
5.12861383991363e-03	-1.01604360566129e+03,-0.00000000000000e+00
5.24807460249771e-03	-1.01604360566129e+03,-0.00000000000000e+00
5.37031796370251e-03	-1.01604360566129e+03,-0.00000000000000e+00
5.49540873857623e-03	-1.01604360566129e+03,-0.00000000000000e+00
5.62341325190347e-03	-1.01604360566129e+03,-0.00000000000000e+00
5.75439937337155e-03	-1.01604360566129e+03,-0.00000000000000e+00
5.88843655355587e-03	-1.01604360566129e+03,-0.00000000000000e+00
6.02559586074356e-03	-1.01604360566129e+03,-0.00000000000000e+00
6.16595001861480e-03	-1.01604360566129e+03,-0.00000000000000e+00
6.30957344480191e-03	-1.01604360566129e+03,-0.00000000000000e+00
6.45654229034654e-03	-1.01604360566129e+03,-0.00000000000000e+00
6.60693448007594e-03	-1.01604360566129e+03,-0.00000000000000e+00
6.76082975391980e-03	-1.01604360566129e+03,-0.00000000000000e+00
6.91830970918934e-03	-1.01604360566129e+03,-0.00000000000000e+00
7.07945784384136e-03	-1.01604360566129e+03,-0.00000000000000e+00
7.24435960074988e-03	-1.01604360566129e+03,-0.00000000000000e+00
7.41310241300915e-03	-1.01604360566129e+03,-0.00000000000000e+00
7.58577575029181e-03	-1.01604360566129e+03,-0.00000000000000e+00
7.76247116628689e-03	-1.01604360566129e+03,-0.00000000000000e+00
7.94328234724279e-03	-1.01604360566129e+03,-0.00000000000000e+00
8.12830516164097e-03	-1.01604360566129e+03,-0.00000000000000e+00
8.31763771102668e-03	-1.01604360566129e+03,-0.00000000000000e+00
8.51138038202373e-03	-1.01604360566129e+03,-0.00000000000000e+00
8.70963589956078e-03	-1.01604360566129e+03,-0.00000000000000e+00
8.91250938133742e-03	-1.01604360566129e+03,-0.00000000000000e+00
9.12010839355906e-03	-1.01604360566129e+03,-0.00000000000000e+00
9.33254300796988e-03	-1.01604360566129e+03,-0.00000000000000e+00
9.54992586021432e-03	-1.01604360566129e+03,-0.00000000000000e+00
9.77237220955807e-03	-1.01604360566129e+03,-0.00000000000000e+00
9.99999999999996e-03	-1.01604360566129e+03,-0.00000000000000e+00
1.02329299228075e-02	-1.01604360566129e+03,-0.00000000000000e+00
1.04712854805090e-02	-1.01604360566129e+03,-0.00000000000000e+00
1.07151930523760e-02	-1.01604360566129e+03,-0.00000000000000e+00
1.09647819614318e-02	-1.01604360566129e+03,-0.00000000000000e+00
1.12201845430196e-02	-1.01604360566129e+03,-0.00000000000000e+00
1.14815362149688e-02	-1.01604360566129e+03,-0.00000000000000e+00
1.17489755493952e-02	-1.01604360566129e+03,-0.00000000000000e+00
1.20226443461741e-02	-1.01604360566129e+03,-0.00000000000000e+00
1.23026877081238e-02	-1.01604360566129e+03,-0.00000000000000e+00
1.25892541179416e-02	-1.01604360566129e+03,-0.00000000000000e+00
1.28824955169313e-02	-1.01604360566129e+03,-0.00000000000000e+00
1.31825673855640e-02	-1.01604360566129e+03,-0.00000000000000e+00
1.34896288259165e-02	-1.01604360566129e+03,-0.00000000000000e+00
1.38038426460288e-02	-1.01604360566129e+03,-0.00000000000000e+00
1.41253754462275e-02	-1.01604360566129e+03,-0.00000000000000e+00
1.44543977074592e-02	-1.01604360566129e+03,-0.00000000000000e+00
1.47910838816820e-02	-1.01604360566129e+03,-0.00000000000000e+00
1.51356124843620e-02	-1.01604360566129e+03,-0.00000000000000e+00
1.54881661891247e-02	-1.01604360566129e+03,-0.00000000000000e+00
1.58489319246111e-02	-1.01604360566129e+03,-0.00000000000000e+00
1.62181009735892e-02	-1.01604360566129e+03,-0.00000000000000e+00
1.65958690743755e-02	-1.01604360566129e+03,-0.00000000000000e+00
1.69824365246174e-02	-1.01604360566129e+03,-0.00000000000000e+00
1.73780082874937e-02	-1.01604360566129e+03,-0.00000000000000e+00
1.77827941003891e-02	-1.01604360566129e+03,-0.00000000000000e+00
1.81970085860997e-02	-1.01604360566129e+03,-0.00000000000000e+00
1.86208713666286e-02	-1.01604360566129e+03,-0.00000000000000e+00
1.90546071796324e-02	-1.01604360566129e+03,-0.00000000000000e+00
1.94984459975804e-02	-1.01604360566129e+03,-0.00000000000000e+00
1.99526231496887e-02	-1.01604360566129e+03,-0.00000000000000e+00
2.04173794466952e-02	-1.01604360566129e+03,-0.00000000000000e+00
2.08929613085403e-02	-1.01604360566129e+03,-0.00000000000000e+00
2.13796208950222e-02	-1.01604360566129e+03,-0.00000000000000e+00
2.18776162394954e-02	-1.01604360566129e+03,-0.00000000000000e+00
2.23872113856833e-02	-1.01604360566129e+03,-0.00000000000000e+00
2.29086765276776e-02	-1.01604360566129e+03,-0.00000000000000e+00
2.34422881531991e-02	-1.01604360566129e+03,-0.00000000000000e+00
2.39883291901948e-02	-1.01604360566129e+03,-0.00000000000000e+00
2.45470891568502e-02	-1.01604360566129e+03,-0.00000000000000e+00
2.51188643150957e-02	-1.01604360566129e+03,-0.00000000000000e+00
2.57039578276885e-02	-1.01604360566129e+03,-0.00000000000000e+00
2.63026799189537e-02	-1.01604360566129e+03,-0.00000000000000e+00
2.69153480392690e-02	-1.01604360566129e+03,-0.00000000000000e+00
2.75422870333815e-02	-1.01604360566129e+03,-0.00000000000000e+00
2.81838293126444e-02	-1.01604360566129e+03,-0.00000000000000e+00
2.88403150312659e-02	-1.01604360566129e+03,-0.00000000000000e+00
2.95120922666637e-02	-1.01604360566129e+03,-0.00000000000000e+00
3.01995172040200e-02	-1.01604360566129e+03,-0.00000000000000e+00
3.09029543251357e-02	-1.01604360566129e+03,-0.00000000000000e+00
3.16227766016836e-02	-1.01604360566129e+03,-0.00000000000000e+00
3.23593656929626e-02	-1.01604360566129e+03,-0.00000000000000e+00
3.31131121482589e-02	-1.01604360566129e+03,-0.00000000000000e+00
3.38844156139201e-02	-1.01604360566129e+03,-0.00000000000000e+00
3.46736850452530e-02	-1.01604360566129e+03,-0.00000000000000e+00
3.54813389233573e-02	-1.01604360566129e+03,-0.00000000000000e+00
3.63078054770099e-02	-1.01604360566129e+03,-0.00000000000000e+00
3.71535229097170e-02	-1.01604360566129e+03,-0.00000000000000e+00
3.80189396320559e-02	-1.01604360566129e+03,-0.00000000000000e+00
3.89045144994278e-02	-1.01604360566129e+03,-0.00000000000000e+00
3.98107170553495e-02	-1.01604360566129e+03,-0.00000000000000e+00
4.07380277804110e-02	-1.01604360566129e+03,-0.00000000000000e+00
4.16869383470333e-02	-1.01604360566129e+03,-0.00000000000000e+00
4.26579518801590e-02	-1.01604360566129e+03,-0.00000000000000e+00
4.36515832240163e-02	-1.01604360566129e+03,-0.00000000000000e+00
4.46683592150960e-02	-1.01604360566129e+03,-0.00000000000000e+00
4.57088189614872e-02	-1.01604360566129e+03,-0.00000000000000e+00
4.67735141287195e-02	-1.01604360566129e+03,-0.00000000000000e+00
4.78630092322635e-02	-1.01604360566129e+03,-0.00000000000000e+00
4.89778819368443e-02	-1.01604360566129e+03,-0.00000000000000e+00
5.01187233627269e-02	-1.01604360566129e+03,-0.00000000000000e+00
5.12861383991362e-02	-1.01604360566129e+03,-0.00000000000000e+00
5.24807460249769e-02	-1.01604360566129e+03,-0.00000000000000e+00
5.37031796370249e-02	-1.01604360566129e+03,-0.00000000000000e+00
5.49540873857621e-02	-1.01604360566129e+03,-0.00000000000000e+00
5.62341325190346e-02	-1.01604360566129e+03,-0.00000000000000e+00
5.75439937337153e-02	-1.01604360566129e+03,-0.00000000000000e+00
5.88843655355585e-02	-1.01604360566129e+03,-0.00000000000000e+00
6.02559586074354e-02	-1.01604360566129e+03,-0.00000000000000e+00
6.16595001861478e-02	-1.01604360566129e+03,-0.00000000000000e+00
6.30957344480189e-02	-1.01604360566129e+03,-0.00000000000000e+00
6.45654229034651e-02	-1.01604360566129e+03,-0.00000000000000e+00
6.60693448007592e-02	-1.01604360566129e+03,-0.00000000000000e+00
6.76082975391978e-02	-1.01604360566129e+03,-0.00000000000000e+00
6.91830970918932e-02	-1.01604360566129e+03,-0.00000000000000e+00
7.07945784384133e-02	-1.01604360566129e+03,-0.00000000000000e+00
7.24435960074985e-02	-1.01604360566129e+03,-0.00000000000000e+00
7.41310241300913e-02	-1.01604360566129e+03,-0.00000000000000e+00
7.58577575029179e-02	-1.01604360566129e+03,-0.00000000000000e+00
7.76247116628687e-02	-1.01604360566129e+03,-0.00000000000000e+00
7.94328234724276e-02	-1.01604360566129e+03,-0.00000000000000e+00
8.12830516164094e-02	-1.01604360566129e+03,-0.00000000000000e+00
8.31763771102666e-02	-1.01604360566129e+03,-0.00000000000000e+00
8.51138038202371e-02	-1.01604360566129e+03,-0.00000000000000e+00
8.70963589956075e-02	-1.01604360566129e+03,-0.00000000000000e+00
8.91250938133740e-02	-1.01604360566129e+03,-0.00000000000000e+00
9.12010839355904e-02	-1.01604360566129e+03,-0.00000000000000e+00
9.33254300796985e-02	-1.01604360566129e+03,-0.00000000000000e+00
9.54992586021430e-02	-1.01604360566129e+03,-0.00000000000000e+00
9.77237220955804e-02	-1.01604360566129e+03,-0.00000000000000e+00
9.99999999999993e-02	-1.01604360566129e+03,-0.00000000000000e+00
1.02329299228075e-01	-1.01604360566129e+03,-0.00000000000000e+00
1.04712854805089e-01	-1.01604360566129e+03,-0.00000000000000e+00
1.07151930523760e-01	-1.01604360566129e+03,-0.00000000000000e+00
1.09647819614318e-01	-1.01604360566129e+03,-0.00000000000000e+00
1.12201845430196e-01	-1.01604360566129e+03,-0.00000000000000e+00
1.14815362149687e-01	-1.01604360566129e+03,-0.00000000000000e+00
1.17489755493952e-01	-1.01604360566129e+03,-0.00000000000000e+00
1.20226443461740e-01	-1.01604360566129e+03,-0.00000000000000e+00
1.23026877081237e-01	-1.01604360566129e+03,-0.00000000000000e+00
1.25892541179416e-01	-1.01604360566129e+03,-0.00000000000000e+00
1.28824955169312e-01	-1.01604360566129e+03,-0.00000000000000e+00
1.31825673855640e-01	-1.01604360566129e+03,-0.00000000000000e+00
1.34896288259164e-01	-1.01604360566129e+03,-0.00000000000000e+00
1.38038426460287e-01	-1.01604360566129e+03,-0.00000000000000e+00
1.41253754462274e-01	-1.01604360566129e+03,-0.00000000000000e+00
1.44543977074592e-01	-1.01604360566129e+03,-0.00000000000000e+00
1.47910838816820e-01	-1.01604360566129e+03,-0.00000000000000e+00
1.51356124843620e-01	-1.01604360566129e+03,-0.00000000000000e+00
1.54881661891247e-01	-1.01604360566129e+03,-0.00000000000000e+00
1.58489319246110e-01	-1.01604360566129e+03,-0.00000000000000e+00
1.62181009735892e-01	-1.01604360566129e+03,-0.00000000000000e+00
1.65958690743755e-01	-1.01604360566129e+03,-0.00000000000000e+00
1.69824365246173e-01	-1.01604360566129e+03,-0.00000000000000e+00
1.73780082874936e-01	-1.01604360566129e+03,-0.00000000000000e+00
1.77827941003891e-01	-1.01604360566129e+03,-0.00000000000000e+00
1.81970085860997e-01	-1.01604360566129e+03,-0.00000000000000e+00
1.86208713666285e-01	-1.01604360566129e+03,-0.00000000000000e+00
1.90546071796323e-01	-1.01604360566129e+03,-0.00000000000000e+00
1.94984459975803e-01	-1.01604360566129e+03,-0.00000000000000e+00
1.99526231496886e-01	-1.01604360566129e+03,-0.00000000000000e+00
2.04173794466951e-01	-1.01604360566129e+03,-0.00000000000000e+00
2.08929613085402e-01	-1.01604360566129e+03,-0.00000000000000e+00
2.13796208950222e-01	-1.01604360566129e+03,-0.00000000000000e+00
2.18776162394954e-01	-1.01604360566129e+03,-0.00000000000000e+00
2.23872113856832e-01	-1.01604360566129e+03,-0.00000000000000e+00
2.29086765276776e-01	-1.01604360566129e+03,-0.00000000000000e+00
2.34422881531990e-01	-1.01604360566129e+03,-0.00000000000000e+00
2.39883291901947e-01	-1.01604360566129e+03,-0.00000000000000e+00
2.45470891568501e-01	-1.01604360566129e+03,-0.00000000000000e+00
2.51188643150956e-01	-1.01604360566129e+03,-0.00000000000000e+00
2.57039578276884e-01	-1.01604360566129e+03,-0.00000000000000e+00
2.63026799189536e-01	-1.01604360566129e+03,-0.00000000000000e+00
2.69153480392689e-01	-1.01604360566129e+03,-0.00000000000000e+00
2.75422870333815e-01	-1.01604360566129e+03,-0.00000000000000e+00
2.81838293126443e-01	-1.01604360566129e+03,-0.00000000000000e+00
2.88403150312658e-01	-1.01604360566129e+03,-0.00000000000000e+00
2.95120922666636e-01	-1.01604360566129e+03,-0.00000000000000e+00
3.01995172040199e-01	-1.01604360566129e+03,-0.00000000000000e+00
3.09029543251357e-01	-1.01604360566129e+03,-0.00000000000000e+00
3.16227766016835e-01	-1.01604360566129e+03,-0.00000000000000e+00
3.23593656929626e-01	-1.01604360566129e+03,-0.00000000000000e+00
3.31131121482588e-01	-1.01604360566129e+03,-0.00000000000000e+00
3.38844156139200e-01	-1.01604360566129e+03,-0.00000000000000e+00
3.46736850452529e-01	-1.01604360566129e+03,-0.00000000000000e+00
3.54813389233573e-01	-1.01604360566129e+03,-0.00000000000000e+00
3.63078054770098e-01	-1.01604360566129e+03,-0.00000000000000e+00
3.71535229097170e-01	-1.01604360566129e+03,-0.00000000000000e+00
3.80189396320558e-01	-1.01604360566129e+03,-0.00000000000000e+00
3.89045144994277e-01	-1.01604360566129e+03,-0.00000000000000e+00
3.98107170553494e-01	-1.01604360566129e+03,-0.00000000000000e+00
4.07380277804109e-01	-1.01604360566129e+03,-0.00000000000000e+00
4.16869383470332e-01	-1.01604360566129e+03,-0.00000000000000e+00
4.26579518801589e-01	-1.01604360566129e+03,-0.00000000000000e+00
4.36515832240162e-01	-1.01604360566129e+03,-0.00000000000000e+00
4.46683592150959e-01	-1.01604360566129e+03,-0.00000000000000e+00
4.57088189614871e-01	-1.01604360566129e+03,-0.00000000000000e+00
4.67735141287194e-01	-1.01604360566129e+03,-0.00000000000000e+00
4.78630092322634e-01	-1.01604360566129e+03,-0.00000000000000e+00
4.89778819368442e-01	-1.01604360566129e+03,-0.00000000000000e+00
5.01187233627268e-01	-1.01604360566129e+03,-0.00000000000000e+00
5.12861383991360e-01	-1.01604360566129e+03,-0.00000000000000e+00
5.24807460249768e-01	-1.01604360566129e+03,-0.00000000000000e+00
5.37031796370248e-01	-1.01604360566129e+03,-0.00000000000000e+00
5.49540873857620e-01	-1.01604360566129e+03,-0.00000000000000e+00
5.62341325190344e-01	-1.01604360566129e+03,-0.00000000000000e+00
5.75439937337152e-01	-1.01604360566129e+03,-0.00000000000000e+00
5.88843655355584e-01	-1.01604360566129e+03,-0.00000000000000e+00
6.02559586074352e-01	-1.01604360566129e+03,-0.00000000000000e+00
6.16595001861477e-01	-1.01604360566129e+03,-0.00000000000000e+00
6.30957344480188e-01	-1.01604360566129e+03,-0.00000000000000e+00
6.45654229034650e-01	-1.01604360566129e+03,-0.00000000000000e+00
6.60693448007590e-01	-1.01604360566129e+03,-0.00000000000000e+00
6.76082975391976e-01	-1.01604360566129e+03,-0.00000000000000e+00
6.91830970918930e-01	-1.01604360566129e+03,-0.00000000000000e+00
7.07945784384132e-01	-1.01604360566129e+03,-0.00000000000000e+00
7.24435960074984e-01	-1.01604360566129e+03,-0.00000000000000e+00
7.41310241300911e-01	-1.01604360566129e+03,-0.00000000000000e+00
7.58577575029177e-01	-1.01604360566129e+03,-0.00000000000000e+00
7.76247116628685e-01	-1.01604360566129e+03,-0.00000000000000e+00
7.94328234724274e-01	-1.01604360566129e+03,-0.00000000000000e+00
8.12830516164092e-01	-1.01604360566129e+03,-0.00000000000000e+00
8.31763771102663e-01	-1.01604360566129e+03,-0.00000000000000e+00
8.51138038202369e-01	-1.01604360566129e+03,-0.00000000000000e+00
8.70963589956073e-01	-1.01604360566129e+03,-0.00000000000000e+00
8.91250938133737e-01	-1.01604360566129e+03,-0.00000000000000e+00
9.12010839355901e-01	-1.01604360566129e+03,-0.00000000000000e+00
9.33254300796982e-01	-1.01604360566129e+03,-0.00000000000000e+00
9.54992586021427e-01	-1.01604360566129e+03,-0.00000000000000e+00
9.77237220955801e-01	-1.01604360566129e+03,-0.00000000000000e+00
9.99999999999990e-01	-1.01604360566129e+03,-0.00000000000000e+00
1.02329299228074e+00	-1.01604360566129e+03,-0.00000000000000e+00
